2018-05-04 22:49:56
base hex timestamps absolute
internal events logged
0.000000 start of measurement
0.00000000 1 00004185x Rx d 8 0x85 0x86 0x87 0x88 0x89 0x8A 0x8B 0x8C
0.00060000 1 00004186x Rx d 8 0x86 0x87 0x88 0x89 0x8A 0x8B 0x8C 0x8D
0.00110000 1 00004187x Rx d 8 0x87 0x88 0x89 0x8A 0x40 0x20 0x50 0x21
0.00170000 1 00004188x Rx d 8 0x88 0x89 0x8A 0x8B 0x8C 0x8D 0x8E 0x8F
0.00220000 1 00004189x Rx d 8 0x89 0x8A 0x8B 0x8C 0x8D 0x8E 0x8F 0x90
0.00270000 1 0000418Ax Rx d 8 0x8A 0x8B 0x8C 0x8D 0x8E 0x8F 0x90 0x91
0.00330000 1 0000418Bx Rx d 8 0x8B 0x8C 0x8D 0x8E 0x8F 0x90 0x91 0x92
0.00380000 1 0000418Cx Rx d 8 0x8C 0x8D 0x8E 0x8F 0x90 0x91 0x92 0x93
0.00440000 1 0000418Dx Rx d 8 0x8D 0x8E 0x8F 0x90 0x91 0x92 0x93 0x94
0.00490000 1 0000418Ex Rx d 8 0x8E 0x8F 0x90 0x91 0x92 0x93 0x94 0x95
0.00550000 1 0000418Fx Rx d 8 0x8A 0x8B 0x8C 0x8D 0x8E 0x8F 0x90 0x91
0.00600000 1 00004190x Rx d 8 0x90 0x91 0x92 0x93 0x94 0x95 0x96 0x97
0.03030000 1 00004185x Rx d 8 0x85 0x86 0x87 0x88 0x89 0x8A 0x8B 0x8C
0.03080000 1 00004189x Rx d 8 0x89 0x8A 0x8B 0x8C 0x8D 0x8E 0x8F 0x90
0.03140000 1 0000418Ax Rx d 8 0x8A 0x8B 0x8C 0x8D 0x8E 0x8F 0x90 0x91
0.06560000 1 00004185x Rx d 8 0x85 0x86 0x87 0x88 0x89 0x8A 0x8B 0x8C
0.06610000 1 00004186x Rx d 8 0x86 0x87 0x88 0x89 0x8A 0x8B 0x8C 0x8D
0.06670000 1 00004187x Rx d 8 0x87 0x88 0x89 0x8A 0x2C 0x20 0x64 0x21
0.06720000 1 00004188x Rx d 8 0x88 0x89 0x8A 0x8B 0x8C 0x8D 0x8E 0x8F
0.06780000 1 00004189x Rx d 8 0x89 0x8A 0x8B 0x8C 0x8D 0x8E 0x8F 0x90
0.06830000 1 0000418Ax Rx d 8 0x8A 0x8B 0x8C 0x8D 0x8E 0x8F 0x90 0x91
0.06880000 1 0000418Bx Rx d 8 0x8B 0x8C 0x8D 0x8E 0x8F 0x90 0x91 0x92
0.06940000 1 0000418Cx Rx d 8 0x8C 0x8D 0x8E 0x8F 0x90 0x91 0x92 0x93
0.06990000 1 0000418Dx Rx d 8 0x8D 0x8E 0x8F 0x90 0x91 0x92 0x93 0x94
0.07050000 1 0000418Ex Rx d 8 0x8E 0x8F 0x90 0x91 0x92 0x93 0x94 0x95
0.07100000 1 0000418Fx Rx d 8 0x8A 0x8B 0x8C 0x8D 0x8E 0x8F 0x90 0x91
0.07150000 1 00004190x Rx d 8 0x90 0x91 0x92 0x93 0x94 0x95 0x96 0x97
0.09840000 1 00004185x Rx d 8 0x85 0x86 0x87 0x88 0x89 0x8A 0x8B 0x8C
0.09890000 1 00004189x Rx d 8 0x89 0x8A 0x8B 0x8C 0x8D 0x8E 0x8F 0x90
0.09950000 1 0000418Ax Rx d 8 0x8A 0x8B 0x8C 0x8D 0x8E 0x8F 0x90 0x91
0.12610000 1 00004185x Rx d 8 0x85 0x86 0x87 0x88 0x89 0x8A 0x8B 0x8C
0.12660000 1 00004186x Rx d 8 0x86 0x87 0x88 0x89 0x8A 0x8B 0x8C 0x8D
0.12720001 1 00004187x Rx d 8 0x87 0x88 0x89 0x8A 0x18 0x20 0x78 0x21
0.12770000 1 00004188x Rx d 8 0x88 0x89 0x8A 0x8B 0x8C 0x8D 0x8E 0x8F
0.12830000 1 00004189x Rx d 8 0x89 0x8A 0x8B 0x8C 0x8D 0x8E 0x8F 0x90
0.12880000 1 0000418Ax Rx d 8 0x8A 0x8B 0x8C 0x8D 0x8E 0x8F 0x90 0x91
0.12940000 1 0000418Bx Rx d 8 0x8B 0x8C 0x8D 0x8E 0x8F 0x90 0x91 0x92
0.12989999 1 0000418Cx Rx d 8 0x8C 0x8D 0x8E 0x8F 0x90 0x91 0x92 0x93
0.13050000 1 0000418Dx Rx d 8 0x8D 0x8E 0x8F 0x90 0x91 0x92 0x93 0x94
0.13100000 1 0000418Ex Rx d 8 0x8E 0x8F 0x90 0x91 0x92 0x93 0x94 0x95
0.13150001 1 0000418Fx Rx d 8 0x8A 0x8B 0x8C 0x8D 0x8E 0x8F 0x90 0x91
0.13210000 1 00004190x Rx d 8 0x90 0x91 0x92 0x93 0x94 0x95 0x96 0x97
0.15640000 1 00004185x Rx d 8 0x85 0x86 0x87 0x88 0x89 0x8A 0x8B 0x8C
0.15690000 1 00004189x Rx d 8 0x89 0x8A 0x8B 0x8C 0x8D 0x8E 0x8F 0x90
0.15750000 1 0000418Ax Rx d 8 0x8A 0x8B 0x8C 0x8D 0x8E 0x8F 0x90 0x91
0.18160000 1 00004185x Rx d 8 0x85 0x86 0x87 0x88 0x89 0x8A 0x8B 0x8C
0.18210000 1 00004186x Rx d 8 0x86 0x87 0x88 0x89 0x8A 0x8B 0x8C 0x8D
0.18269999 1 00004187x Rx d 8 0x87 0x88 0x89 0x8A 0x04 0x20 0x8C 0x21
0.18320000 1 00004188x Rx d 8 0x88 0x89 0x8A 0x8B 0x8C 0x8D 0x8E 0x8F
0.18370000 1 00004189x Rx d 8 0x89 0x8A 0x8B 0x8C 0x8D 0x8E 0x8F 0x90
0.18430001 1 0000418Ax Rx d 8 0x8A 0x8B 0x8C 0x8D 0x8E 0x8F 0x90 0x91
0.18480000 1 0000418Bx Rx d 8 0x8B 0x8C 0x8D 0x8E 0x8F 0x90 0x91 0x92
0.18539999 1 0000418Cx Rx d 8 0x8C 0x8D 0x8E 0x8F 0x90 0x91 0x92 0x93
0.18590000 1 0000418Dx Rx d 8 0x8D 0x8E 0x8F 0x90 0x91 0x92 0x93 0x94
0.18650000 1 0000418Ex Rx d 8 0x8E 0x8F 0x90 0x91 0x92 0x93 0x94 0x95
0.18700001 1 0000418Fx Rx d 8 0x8A 0x8B 0x8C 0x8D 0x8E 0x8F 0x90 0x91
0.18750000 1 00004190x Rx d 8 0x90 0x91 0x92 0x93 0x94 0x95 0x96 0x97
0.21179999 1 00004185x Rx d 8 0x85 0x86 0x87 0x88 0x89 0x8A 0x8B 0x8C
0.21240000 1 00004189x Rx d 8 0x89 0x8A 0x8B 0x8C 0x8D 0x8E 0x8F 0x90
0.21290000 1 0000418Ax Rx d 8 0x8A 0x8B 0x8C 0x8D 0x8E 0x8F 0x90 0x91
0.23960000 1 00004185x Rx d 8 0x85 0x86 0x87 0x88 0x89 0x8A 0x8B 0x8C
0.24010000 1 00004186x Rx d 8 0x86 0x87 0x88 0x89 0x8A 0x8B 0x8C 0x8D
0.24070001 1 00004187x Rx d 8 0x87 0x88 0x89 0x8A 0xF0 0x1F 0xA0 0x21
0.24120000 1 00004188x Rx d 8 0x88 0x89 0x8A 0x8B 0x8C 0x8D 0x8E 0x8F
0.24169999 1 00004189x Rx d 8 0x89 0x8A 0x8B 0x8C 0x8D 0x8E 0x8F 0x90
0.24230000 1 0000418Ax Rx d 8 0x8A 0x8B 0x8C 0x8D 0x8E 0x8F 0x90 0x91
0.24280000 1 0000418Bx Rx d 8 0x8B 0x8C 0x8D 0x8E 0x8F 0x90 0x91 0x92
0.24339999 1 0000418Cx Rx d 8 0x8C 0x8D 0x8E 0x8F 0x90 0x91 0x92 0x93
0.24390000 1 0000418Dx Rx d 8 0x8D 0x8E 0x8F 0x90 0x91 0x92 0x93 0x94
0.24450000 1 0000418Ex Rx d 8 0x8E 0x8F 0x90 0x91 0x92 0x93 0x94 0x95
0.24500000 1 0000418Fx Rx d 8 0x8A 0x8B 0x8C 0x8D 0x8E 0x8F 0x90 0x91
0.24550000 1 00004190x Rx d 8 0x90 0x91 0x92 0x93 0x94 0x95 0x96 0x97
0.27489999 1 00004185x Rx d 8 0x85 0x86 0x87 0x88 0x89 0x8A 0x8B 0x8C
0.27540001 1 00004189x Rx d 8 0x89 0x8A 0x8B 0x8C 0x8D 0x8E 0x8F 0x90
0.27599999 1 0000418Ax Rx d 8 0x8A 0x8B 0x8C 0x8D 0x8E 0x8F 0x90 0x91
0.30509999 1 00004185x Rx d 8 0x85 0x86 0x87 0x88 0x89 0x8A 0x8B 0x8C
0.30570000 1 00004186x Rx d 8 0x86 0x87 0x88 0x89 0x8A 0x8B 0x8C 0x8D
0.30620000 1 00004187x Rx d 8 0x87 0x88 0x89 0x8A 0xDC 0x1F 0xB4 0x21
0.30680001 1 00004188x Rx d 8 0x88 0x89 0x8A 0x8B 0x8C 0x8D 0x8E 0x8F
0.30730000 1 00004189x Rx d 8 0x89 0x8A 0x8B 0x8C 0x8D 0x8E 0x8F 0x90
0.30790001 1 0000418Ax Rx d 8 0x8A 0x8B 0x8C 0x8D 0x8E 0x8F 0x90 0x91
0.30840001 1 0000418Bx Rx d 8 0x8B 0x8C 0x8D 0x8E 0x8F 0x90 0x91 0x92
0.30890000 1 0000418Cx Rx d 8 0x8C 0x8D 0x8E 0x8F 0x90 0x91 0x92 0x93
0.30950001 1 0000418Dx Rx d 8 0x8D 0x8E 0x8F 0x90 0x91 0x92 0x93 0x94
0.31000000 1 0000418Ex Rx d 8 0x8E 0x8F 0x90 0x91 0x92 0x93 0x94 0x95
0.31060001 1 0000418Fx Rx d 8 0x8A 0x8B 0x8C 0x8D 0x8E 0x8F 0x90 0x91
0.31110001 1 00004190x Rx d 8 0x90 0x91 0x92 0x93 0x94 0x95 0x96 0x97
0.34040001 1 00004185x Rx d 8 0x85 0x86 0x87 0x88 0x89 0x8A 0x8B 0x8C
0.34099999 1 00004189x Rx d 8 0x89 0x8A 0x8B 0x8C 0x8D 0x8E 0x8F 0x90
0.34150001 1 0000418Ax Rx d 8 0x8A 0x8B 0x8C 0x8D 0x8E 0x8F 0x90 0x91
0.36820000 1 00004185x Rx d 8 0x85 0x86 0x87 0x88 0x89 0x8A 0x8B 0x8C
0.36870000 1 00004186x Rx d 8 0x86 0x87 0x88 0x89 0x8A 0x8B 0x8C 0x8D
0.36930001 1 00004187x Rx d 8 0x87 0x88 0x89 0x8A 0xC8 0x1F 0xC8 0x21
0.36980000 1 00004188x Rx d 8 0x88 0x89 0x8A 0x8B 0x8C 0x8D 0x8E 0x8F
0.37040001 1 00004189x Rx d 8 0x89 0x8A 0x8B 0x8C 0x8D 0x8E 0x8F 0x90
0.37090001 1 0000418Ax Rx d 8 0x8A 0x8B 0x8C 0x8D 0x8E 0x8F 0x90 0x91
0.37140000 1 0000418Bx Rx d 8 0x8B 0x8C 0x8D 0x8E 0x8F 0x90 0x91 0x92
0.37200001 1 0000418Cx Rx d 8 0x8C 0x8D 0x8E 0x8F 0x90 0x91 0x92 0x93
0.37250000 1 0000418Dx Rx d 8 0x8D 0x8E 0x8F 0x90 0x91 0x92 0x93 0x94
0.37310001 1 0000418Ex Rx d 8 0x8E 0x8F 0x90 0x91 0x92 0x93 0x94 0x95
0.37360001 1 0000418Fx Rx d 8 0x8A 0x8B 0x8C 0x8D 0x8E 0x8F 0x90 0x91
0.37419999 1 00004190x Rx d 8 0x90 0x91 0x92 0x93 0x94 0x95 0x96 0x97
0.39840001 1 00004185x Rx d 8 0x85 0x86 0x87 0x88 0x89 0x8A 0x8B 0x8C
0.39899999 1 00004189x Rx d 8 0x89 0x8A 0x8B 0x8C 0x8D 0x8E 0x8F 0x90
0.39950001 1 0000418Ax Rx d 8 0x8A 0x8B 0x8C 0x8D 0x8E 0x8F 0x90 0x91
0.42370000 1 00004185x Rx d 8 0x85 0x86 0x87 0x88 0x89 0x8A 0x8B 0x8C
0.42420000 1 00004186x Rx d 8 0x86 0x87 0x88 0x89 0x8A 0x8B 0x8C 0x8D
0.42469999 1 00004187x Rx d 8 0x87 0x88 0x89 0x8A 0xB4 0x1F 0xDC 0x21
0.42530000 1 00004188x Rx d 8 0x88 0x89 0x8A 0x8B 0x8C 0x8D 0x8E 0x8F
0.42580000 1 00004189x Rx d 8 0x89 0x8A 0x8B 0x8C 0x8D 0x8E 0x8F 0x90
0.42640001 1 0000418Ax Rx d 8 0x8A 0x8B 0x8C 0x8D 0x8E 0x8F 0x90 0x91
0.42690000 1 0000418Bx Rx d 8 0x8B 0x8C 0x8D 0x8E 0x8F 0x90 0x91 0x92
0.42750001 1 0000418Cx Rx d 8 0x8C 0x8D 0x8E 0x8F 0x90 0x91 0x92 0x93
0.42800000 1 0000418Dx Rx d 8 0x8D 0x8E 0x8F 0x90 0x91 0x92 0x93 0x94
0.42850000 1 0000418Ex Rx d 8 0x8E 0x8F 0x90 0x91 0x92 0x93 0x94 0x95
0.42910001 1 0000418Fx Rx d 8 0x8A 0x8B 0x8C 0x8D 0x8E 0x8F 0x90 0x91
0.42960000 1 00004190x Rx d 8 0x90 0x91 0x92 0x93 0x94 0x95 0x96 0x97
0.45640001 1 00004185x Rx d 8 0x85 0x86 0x87 0x88 0x89 0x8A 0x8B 0x8C
0.45699999 1 00004189x Rx d 8 0x89 0x8A 0x8B 0x8C 0x8D 0x8E 0x8F 0x90
0.45750001 1 0000418Ax Rx d 8 0x8A 0x8B 0x8C 0x8D 0x8E 0x8F 0x90 0x91
0.48420000 1 00004185x Rx d 8 0x85 0x86 0x87 0x88 0x89 0x8A 0x8B 0x8C
0.48469999 1 00004186x Rx d 8 0x86 0x87 0x88 0x89 0x8A 0x8B 0x8C 0x8D
0.48530000 1 00004187x Rx d 8 0x87 0x88 0x89 0x8A 0xA0 0x1F 0xF0 0x21
0.48580000 1 00004188x Rx d 8 0x88 0x89 0x8A 0x8B 0x8C 0x8D 0x8E 0x8F
0.48629999 1 00004189x Rx d 8 0x89 0x8A 0x8B 0x8C 0x8D 0x8E 0x8F 0x90
0.48690000 1 0000418Ax Rx d 8 0x8A 0x8B 0x8C 0x8D 0x8E 0x8F 0x90 0x91
0.48740000 1 0000418Bx Rx d 8 0x8B 0x8C 0x8D 0x8E 0x8F 0x90 0x91 0x92
0.48800001 1 0000418Cx Rx d 8 0x8C 0x8D 0x8E 0x8F 0x90 0x91 0x92 0x93
0.48850000 1 0000418Dx Rx d 8 0x8D 0x8E 0x8F 0x90 0x91 0x92 0x93 0x94
0.48910001 1 0000418Ex Rx d 8 0x8E 0x8F 0x90 0x91 0x92 0x93 0x94 0x95
0.48960000 1 0000418Fx Rx d 8 0x8A 0x8B 0x8C 0x8D 0x8E 0x8F 0x90 0x91
0.49010000 1 00004190x Rx d 8 0x90 0x91 0x92 0x93 0x94 0x95 0x96 0x97
0.51950002 1 00004185x Rx d 8 0x85 0x86 0x87 0x88 0x89 0x8A 0x8B 0x8C
0.51999998 1 00004189x Rx d 8 0x89 0x8A 0x8B 0x8C 0x8D 0x8E 0x8F 0x90
0.52060002 1 0000418Ax Rx d 8 0x8A 0x8B 0x8C 0x8D 0x8E 0x8F 0x90 0x91
0.54470003 1 00004185x Rx d 8 0x85 0x86 0x87 0x88 0x89 0x8A 0x8B 0x8C
0.54519999 1 00004186x Rx d 8 0x86 0x87 0x88 0x89 0x8A 0x8B 0x8C 0x8D
0.54579997 1 00004187x Rx d 8 0x87 0x88 0x89 0x8A 0x8C 0x1F 0x04 0x22
0.54629999 1 00004188x Rx d 8 0x88 0x89 0x8A 0x8B 0x8C 0x8D 0x8E 0x8F
0.54689997 1 00004189x Rx d 8 0x89 0x8A 0x8B 0x8C 0x8D 0x8E 0x8F 0x90
0.54740000 1 0000418Ax Rx d 8 0x8A 0x8B 0x8C 0x8D 0x8E 0x8F 0x90 0x91
0.54799998 1 0000418Bx Rx d 8 0x8B 0x8C 0x8D 0x8E 0x8F 0x90 0x91 0x92
0.54850000 1 0000418Cx Rx d 8 0x8C 0x8D 0x8E 0x8F 0x90 0x91 0x92 0x93
0.54909998 1 0000418Dx Rx d 8 0x8D 0x8E 0x8F 0x90 0x91 0x92 0x93 0x94
0.54960001 1 0000418Ex Rx d 8 0x8E 0x8F 0x90 0x91 0x92 0x93 0x94 0x95
0.55010003 1 0000418Fx Rx d 8 0x8A 0x8B 0x8C 0x8D 0x8E 0x8F 0x90 0x91
0.55070001 1 00004190x Rx d 8 0x90 0x91 0x92 0x93 0x94 0x95 0x96 0x97
0.58510000 1 00004185x Rx d 8 0x85 0x86 0x87 0x88 0x89 0x8A 0x8B 0x8C
0.58569998 1 00004189x Rx d 8 0x89 0x8A 0x8B 0x8C 0x8D 0x8E 0x8F 0x90
0.58620000 1 0000418Ax Rx d 8 0x8A 0x8B 0x8C 0x8D 0x8E 0x8F 0x90 0x91
0.61540002 1 00004185x Rx d 8 0x85 0x86 0x87 0x88 0x89 0x8A 0x8B 0x8C
0.61589998 1 00004186x Rx d 8 0x86 0x87 0x88 0x89 0x8A 0x8B 0x8C 0x8D
0.61650002 1 00004187x Rx d 8 0x87 0x88 0x89 0x8A 0x78 0x1F 0x18 0x22
0.61699998 1 00004188x Rx d 8 0x88 0x89 0x8A 0x8B 0x8C 0x8D 0x8E 0x8F
0.61760002 1 00004189x Rx d 8 0x89 0x8A 0x8B 0x8C 0x8D 0x8E 0x8F 0x90
0.61809999 1 0000418Ax Rx d 8 0x8A 0x8B 0x8C 0x8D 0x8E 0x8F 0x90 0x91
0.61870003 1 0000418Bx Rx d 8 0x8B 0x8C 0x8D 0x8E 0x8F 0x90 0x91 0x92
0.61919999 1 0000418Cx Rx d 8 0x8C 0x8D 0x8E 0x8F 0x90 0x91 0x92 0x93
0.61979997 1 0000418Dx Rx d 8 0x8D 0x8E 0x8F 0x90 0x91 0x92 0x93 0x94
0.62029999 1 0000418Ex Rx d 8 0x8E 0x8F 0x90 0x91 0x92 0x93 0x94 0x95
0.62080002 1 0000418Fx Rx d 8 0x8A 0x8B 0x8C 0x8D 0x8E 0x8F 0x90 0x91
0.62140000 1 00004190x Rx d 8 0x90 0x91 0x92 0x93 0x94 0x95 0x96 0x97
0.65069997 1 00004185x Rx d 8 0x85 0x86 0x87 0x88 0x89 0x8A 0x8B 0x8C
0.65120000 1 00004189x Rx d 8 0x89 0x8A 0x8B 0x8C 0x8D 0x8E 0x8F 0x90
0.65179998 1 0000418Ax Rx d 8 0x8A 0x8B 0x8C 0x8D 0x8E 0x8F 0x90 0x91
0.67839998 1 00004185x Rx d 8 0x85 0x86 0x87 0x88 0x89 0x8A 0x8B 0x8C
0.67900002 1 00004186x Rx d 8 0x86 0x87 0x88 0x89 0x8A 0x8B 0x8C 0x8D
0.67949998 1 00004187x Rx d 8 0x87 0x88 0x89 0x8A 0x64 0x1F 0x2C 0x22
0.68010002 1 00004188x Rx d 8 0x88 0x89 0x8A 0x8B 0x8C 0x8D 0x8E 0x8F
0.68059999 1 00004189x Rx d 8 0x89 0x8A 0x8B 0x8C 0x8D 0x8E 0x8F 0x90
0.68120003 1 0000418Ax Rx d 8 0x8A 0x8B 0x8C 0x8D 0x8E 0x8F 0x90 0x91
0.68169999 1 0000418Bx Rx d 8 0x8B 0x8C 0x8D 0x8E 0x8F 0x90 0x91 0x92
0.68220001 1 0000418Cx Rx d 8 0x8C 0x8D 0x8E 0x8F 0x90 0x91 0x92 0x93
0.68279999 1 0000418Dx Rx d 8 0x8D 0x8E 0x8F 0x90 0x91 0x92 0x93 0x94
0.68330002 1 0000418Ex Rx d 8 0x8E 0x8F 0x90 0x91 0x92 0x93 0x94 0x95
0.68390000 1 0000418Fx Rx d 8 0x8A 0x8B 0x8C 0x8D 0x8E 0x8F 0x90 0x91
0.68440002 1 00004190x Rx d 8 0x90 0x91 0x92 0x93 0x94 0x95 0x96 0x97
0.71120000 1 00004185x Rx d 8 0x85 0x86 0x87 0x88 0x89 0x8A 0x8B 0x8C
0.71179998 1 00004189x Rx d 8 0x89 0x8A 0x8B 0x8C 0x8D 0x8E 0x8F 0x90
0.71230000 1 0000418Ax Rx d 8 0x8A 0x8B 0x8C 0x8D 0x8E 0x8F 0x90 0x91
0.73900002 1 00004185x Rx d 8 0x85 0x86 0x87 0x88 0x89 0x8A 0x8B 0x8C
0.73949999 1 00004186x Rx d 8 0x86 0x87 0x88 0x89 0x8A 0x8B 0x8C 0x8D
0.74000001 1 00004187x Rx d 8 0x87 0x88 0x89 0x8A 0x50 0x1F 0x40 0x22
0.74059999 1 00004188x Rx d 8 0x88 0x89 0x8A 0x8B 0x8C 0x8D 0x8E 0x8F
0.74110001 1 00004189x Rx d 8 0x89 0x8A 0x8B 0x8C 0x8D 0x8E 0x8F 0x90
0.74169999 1 0000418Ax Rx d 8 0x8A 0x8B 0x8C 0x8D 0x8E 0x8F 0x90 0x91
0.74220002 1 0000418Bx Rx d 8 0x8B 0x8C 0x8D 0x8E 0x8F 0x90 0x91 0x92
0.74280000 1 0000418Cx Rx d 8 0x8C 0x8D 0x8E 0x8F 0x90 0x91 0x92 0x93
0.74330002 1 0000418Dx Rx d 8 0x8D 0x8E 0x8F 0x90 0x91 0x92 0x93 0x94
0.74390000 1 0000418Ex Rx d 8 0x8E 0x8F 0x90 0x91 0x92 0x93 0x94 0x95
0.74440002 1 0000418Fx Rx d 8 0x8A 0x8B 0x8C 0x8D 0x8E 0x8F 0x90 0x91
0.74489999 1 00004190x Rx d 8 0x90 0x91 0x92 0x93 0x94 0x95 0x96 0x97
0.77429998 1 00004185x Rx d 8 0x85 0x86 0x87 0x88 0x89 0x8A 0x8B 0x8C
0.77480000 1 00004189x Rx d 8 0x89 0x8A 0x8B 0x8C 0x8D 0x8E 0x8F 0x90
0.77539998 1 0000418Ax Rx d 8 0x8A 0x8B 0x8C 0x8D 0x8E 0x8F 0x90 0x91
0.80199999 1 00004185x Rx d 8 0x85 0x86 0x87 0x88 0x89 0x8A 0x8B 0x8C
0.80250001 1 00004186x Rx d 8 0x86 0x87 0x88 0x89 0x8A 0x8B 0x8C 0x8D
0.80309999 1 00004187x Rx d 8 0x87 0x88 0x89 0x8A 0x3C 0x1F 0x54 0x22
0.80360001 1 00004188x Rx d 8 0x88 0x89 0x8A 0x8B 0x8C 0x8D 0x8E 0x8F
0.80419999 1 00004189x Rx d 8 0x89 0x8A 0x8B 0x8C 0x8D 0x8E 0x8F 0x90
0.80470002 1 0000418Ax Rx d 8 0x8A 0x8B 0x8C 0x8D 0x8E 0x8F 0x90 0x91
0.80530000 1 0000418Bx Rx d 8 0x8B 0x8C 0x8D 0x8E 0x8F 0x90 0x91 0x92
0.80580002 1 0000418Cx Rx d 8 0x8C 0x8D 0x8E 0x8F 0x90 0x91 0x92 0x93
0.80629998 1 0000418Dx Rx d 8 0x8D 0x8E 0x8F 0x90 0x91 0x92 0x93 0x94
0.80690002 1 0000418Ex Rx d 8 0x8E 0x8F 0x90 0x91 0x92 0x93 0x94 0x95
0.80739999 1 0000418Fx Rx d 8 0x8A 0x8B 0x8C 0x8D 0x8E 0x8F 0x90 0x91
0.80800003 1 00004190x Rx d 8 0x90 0x91 0x92 0x93 0x94 0x95 0x96 0x97
0.83480000 1 00004185x Rx d 8 0x85 0x86 0x87 0x88 0x89 0x8A 0x8B 0x8C
0.83530003 1 00004189x Rx d 8 0x89 0x8A 0x8B 0x8C 0x8D 0x8E 0x8F 0x90
0.83590001 1 0000418Ax Rx d 8 0x8A 0x8B 0x8C 0x8D 0x8E 0x8F 0x90 0x91
0.86250001 1 00004185x Rx d 8 0x85 0x86 0x87 0x88 0x89 0x8A 0x8B 0x8C
0.86309999 1 00004186x Rx d 8 0x86 0x87 0x88 0x89 0x8A 0x8B 0x8C 0x8D
0.86360002 1 00004187x Rx d 8 0x87 0x88 0x89 0x8A 0x28 0x1F 0x68 0x22
0.86409998 1 00004188x Rx d 8 0x88 0x89 0x8A 0x8B 0x8C 0x8D 0x8E 0x8F
0.86470002 1 00004189x Rx d 8 0x89 0x8A 0x8B 0x8C 0x8D 0x8E 0x8F 0x90
0.86519998 1 0000418Ax Rx d 8 0x8A 0x8B 0x8C 0x8D 0x8E 0x8F 0x90 0x91
0.86580002 1 0000418Bx Rx d 8 0x8B 0x8C 0x8D 0x8E 0x8F 0x90 0x91 0x92
0.86629999 1 0000418Cx Rx d 8 0x8C 0x8D 0x8E 0x8F 0x90 0x91 0x92 0x93
0.86690003 1 0000418Dx Rx d 8 0x8D 0x8E 0x8F 0x90 0x91 0x92 0x93 0x94
0.86739999 1 0000418Ex Rx d 8 0x8E 0x8F 0x90 0x91 0x92 0x93 0x94 0x95
0.86790001 1 0000418Fx Rx d 8 0x8A 0x8B 0x8C 0x8D 0x8E 0x8F 0x90 0x91
0.86849999 1 00004190x Rx d 8 0x90 0x91 0x92 0x93 0x94 0x95 0x96 0x97
0.89529997 1 00004185x Rx d 8 0x85 0x86 0x87 0x88 0x89 0x8A 0x8B 0x8C
0.89590001 1 00004189x Rx d 8 0x89 0x8A 0x8B 0x8C 0x8D 0x8E 0x8F 0x90
0.89639997 1 0000418Ax Rx d 8 0x8A 0x8B 0x8C 0x8D 0x8E 0x8F 0x90 0x91
0.92049998 1 00004185x Rx d 8 0x85 0x86 0x87 0x88 0x89 0x8A 0x8B 0x8C
0.92110002 1 00004186x Rx d 8 0x86 0x87 0x88 0x89 0x8A 0x8B 0x8C 0x8D
0.92159998 1 00004187x Rx d 8 0x87 0x88 0x89 0x8A 0x14 0x1F 0x7C 0x22
0.92210001 1 00004188x Rx d 8 0x88 0x89 0x8A 0x8B 0x8C 0x8D 0x8E 0x8F
0.92269999 1 00004189x Rx d 8 0x89 0x8A 0x8B 0x8C 0x8D 0x8E 0x8F 0x90
0.92320001 1 0000418Ax Rx d 8 0x8A 0x8B 0x8C 0x8D 0x8E 0x8F 0x90 0x91
0.92379999 1 0000418Bx Rx d 8 0x8B 0x8C 0x8D 0x8E 0x8F 0x90 0x91 0x92
0.92430001 1 0000418Cx Rx d 8 0x8C 0x8D 0x8E 0x8F 0x90 0x91 0x92 0x93
0.92490000 1 0000418Dx Rx d 8 0x8D 0x8E 0x8F 0x90 0x91 0x92 0x93 0x94
0.92540002 1 0000418Ex Rx d 8 0x8E 0x8F 0x90 0x91 0x92 0x93 0x94 0x95
0.92600000 1 0000418Fx Rx d 8 0x8A 0x8B 0x8C 0x8D 0x8E 0x8F 0x90 0x91
0.92650002 1 00004190x Rx d 8 0x90 0x91 0x92 0x93 0x94 0x95 0x96 0x97
0.95330000 1 00004185x Rx d 8 0x85 0x86 0x87 0x88 0x89 0x8A 0x8B 0x8C
0.95380002 1 00004189x Rx d 8 0x89 0x8A 0x8B 0x8C 0x8D 0x8E 0x8F 0x90
0.95440000 1 0000418Ax Rx d 8 0x8A 0x8B 0x8C 0x8D 0x8E 0x8F 0x90 0x91
0.98100001 1 00004185x Rx d 8 0x85 0x86 0x87 0x88 0x89 0x8A 0x8B 0x8C
0.98159999 1 00004186x Rx d 8 0x86 0x87 0x88 0x89 0x8A 0x8B 0x8C 0x8D
0.98210001 1 00004187x Rx d 8 0x87 0x88 0x89 0x8A 0x00 0x1F 0x90 0x22
0.98269999 1 00004188x Rx d 8 0x88 0x89 0x8A 0x8B 0x8C 0x8D 0x8E 0x8F
0.98320001 1 00004189x Rx d 8 0x89 0x8A 0x8B 0x8C 0x8D 0x8E 0x8F 0x90
0.98379999 1 0000418Ax Rx d 8 0x8A 0x8B 0x8C 0x8D 0x8E 0x8F 0x90 0x91
0.98430002 1 0000418Bx Rx d 8 0x8B 0x8C 0x8D 0x8E 0x8F 0x90 0x91 0x92
0.98479998 1 0000418Cx Rx d 8 0x8C 0x8D 0x8E 0x8F 0x90 0x91 0x92 0x93
0.98540002 1 0000418Dx Rx d 8 0x8D 0x8E 0x8F 0x90 0x91 0x92 0x93 0x94
0.98589998 1 0000418Ex Rx d 8 0x8E 0x8F 0x90 0x91 0x92 0x93 0x94 0x95
0.98650002 1 0000418Fx Rx d 8 0x8A 0x8B 0x8C 0x8D 0x8E 0x8F 0x90 0x91
0.98699999 1 00004190x Rx d 8 0x90 0x91 0x92 0x93 0x94 0x95 0x96 0x97
1.01129997 1 00004185x Rx d 8 0x85 0x86 0x87 0x88 0x89 0x8A 0x8B 0x8C
1.01180005 1 00004189x Rx d 8 0x89 0x8A 0x8B 0x8C 0x8D 0x8E 0x8F 0x90
1.01240003 1 0000418Ax Rx d 8 0x8A 0x8B 0x8C 0x8D 0x8E 0x8F 0x90 0x91
1.03900003 1 00004185x Rx d 8 0x85 0x86 0x87 0x88 0x89 0x8A 0x8B 0x8C
1.03960001 1 00004186x Rx d 8 0x86 0x87 0x88 0x89 0x8A 0x8B 0x8C 0x8D
1.04009998 1 00004187x Rx d 8 0x87 0x88 0x89 0x8A 0xEC 0x1E 0xA4 0x22
1.04069996 1 00004188x Rx d 8 0x88 0x89 0x8A 0x8B 0x8C 0x8D 0x8E 0x8F
1.04120004 1 00004189x Rx d 8 0x89 0x8A 0x8B 0x8C 0x8D 0x8E 0x8F 0x90
1.04180002 1 0000418Ax Rx d 8 0x8A 0x8B 0x8C 0x8D 0x8E 0x8F 0x90 0x91
1.04229999 1 0000418Bx Rx d 8 0x8B 0x8C 0x8D 0x8E 0x8F 0x90 0x91 0x92
1.04279995 1 0000418Cx Rx d 8 0x8C 0x8D 0x8E 0x8F 0x90 0x91 0x92 0x93
1.04340005 1 0000418Dx Rx d 8 0x8D 0x8E 0x8F 0x90 0x91 0x92 0x93 0x94
1.04390001 1 0000418Ex Rx d 8 0x8E 0x8F 0x90 0x91 0x92 0x93 0x94 0x95
1.04449999 1 0000418Fx Rx d 8 0x8A 0x8B 0x8C 0x8D 0x8E 0x8F 0x90 0x91
1.04499996 1 00004190x Rx d 8 0x90 0x91 0x92 0x93 0x94 0x95 0x96 0x97
1.07690001 1 00004185x Rx d 8 0x85 0x86 0x87 0x88 0x89 0x8A 0x8B 0x8C
1.07739997 1 00004189x Rx d 8 0x89 0x8A 0x8B 0x8C 0x8D 0x8E 0x8F 0x90
1.07790005 1 0000418Ax Rx d 8 0x8A 0x8B 0x8C 0x8D 0x8E 0x8F 0x90 0x91
1.10459995 1 00004185x Rx d 8 0x85 0x86 0x87 0x88 0x89 0x8A 0x8B 0x8C
1.10510004 1 00004186x Rx d 8 0x86 0x87 0x88 0x89 0x8A 0x8B 0x8C 0x8D
1.10570002 1 00004187x Rx d 8 0x87 0x88 0x89 0x8A 0xD8 0x1E 0xB8 0x22
1.10619998 1 00004188x Rx d 8 0x88 0x89 0x8A 0x8B 0x8C 0x8D 0x8E 0x8F
1.10679996 1 00004189x Rx d 8 0x89 0x8A 0x8B 0x8C 0x8D 0x8E 0x8F 0x90
1.10730004 1 0000418Ax Rx d 8 0x8A 0x8B 0x8C 0x8D 0x8E 0x8F 0x90 0x91
1.10790002 1 0000418Bx Rx d 8 0x8B 0x8C 0x8D 0x8E 0x8F 0x90 0x91 0x92
1.10839999 1 0000418Cx Rx d 8 0x8C 0x8D 0x8E 0x8F 0x90 0x91 0x92 0x93
1.10889995 1 0000418Dx Rx d 8 0x8D 0x8E 0x8F 0x90 0x91 0x92 0x93 0x94
1.10950005 1 0000418Ex Rx d 8 0x8E 0x8F 0x90 0x91 0x92 0x93 0x94 0x95
1.11000001 1 0000418Fx Rx d 8 0x8A 0x8B 0x8C 0x8D 0x8E 0x8F 0x90 0x91
1.11059999 1 00004190x Rx d 8 0x90 0x91 0x92 0x93 0x94 0x95 0x96 0x97
1.13489997 1 00004185x Rx d 8 0x85 0x86 0x87 0x88 0x89 0x8A 0x8B 0x8C
1.13540006 1 00004189x Rx d 8 0x89 0x8A 0x8B 0x8C 0x8D 0x8E 0x8F 0x90
1.13600004 1 0000418Ax Rx d 8 0x8A 0x8B 0x8C 0x8D 0x8E 0x8F 0x90 0x91
1.16260004 1 00004185x Rx d 8 0x85 0x86 0x87 0x88 0x89 0x8A 0x8B 0x8C
1.16310000 1 00004186x Rx d 8 0x86 0x87 0x88 0x89 0x8A 0x8B 0x8C 0x8D
1.16369998 1 00004187x Rx d 8 0x87 0x88 0x89 0x8A 0xC4 0x1E 0xCC 0x22
1.16419995 1 00004188x Rx d 8 0x88 0x89 0x8A 0x8B 0x8C 0x8D 0x8E 0x8F
1.16480005 1 00004189x Rx d 8 0x89 0x8A 0x8B 0x8C 0x8D 0x8E 0x8F 0x90
1.16530001 1 0000418Ax Rx d 8 0x8A 0x8B 0x8C 0x8D 0x8E 0x8F 0x90 0x91
1.16589999 1 0000418Bx Rx d 8 0x8B 0x8C 0x8D 0x8E 0x8F 0x90 0x91 0x92
1.16639996 1 0000418Cx Rx d 8 0x8C 0x8D 0x8E 0x8F 0x90 0x91 0x92 0x93
1.16690004 1 0000418Dx Rx d 8 0x8D 0x8E 0x8F 0x90 0x91 0x92 0x93 0x94
1.16750002 1 0000418Ex Rx d 8 0x8E 0x8F 0x90 0x91 0x92 0x93 0x94 0x95
1.16799998 1 0000418Fx Rx d 8 0x8A 0x8B 0x8C 0x8D 0x8E 0x8F 0x90 0x91
1.16859996 1 00004190x Rx d 8 0x90 0x91 0x92 0x93 0x94 0x95 0x96 0x97
1.19289994 1 00004185x Rx d 8 0x85 0x86 0x87 0x88 0x89 0x8A 0x8B 0x8C
1.19340003 1 00004189x Rx d 8 0x89 0x8A 0x8B 0x8C 0x8D 0x8E 0x8F 0x90
1.19400001 1 0000418Ax Rx d 8 0x8A 0x8B 0x8C 0x8D 0x8E 0x8F 0x90 0x91
1.21809995 1 00004185x Rx d 8 0x85 0x86 0x87 0x88 0x89 0x8A 0x8B 0x8C
1.21860003 1 00004186x Rx d 8 0x86 0x87 0x88 0x89 0x8A 0x8B 0x8C 0x8D
1.21920002 1 00004187x Rx d 8 0x87 0x88 0x89 0x8A 0xB0 0x1E 0xE0 0x22
1.21969998 1 00004188x Rx d 8 0x88 0x89 0x8A 0x8B 0x8C 0x8D 0x8E 0x8F
1.22019994 1 00004189x Rx d 8 0x89 0x8A 0x8B 0x8C 0x8D 0x8E 0x8F 0x90
1.22080004 1 0000418Ax Rx d 8 0x8A 0x8B 0x8C 0x8D 0x8E 0x8F 0x90 0x91
1.22130001 1 0000418Bx Rx d 8 0x8B 0x8C 0x8D 0x8E 0x8F 0x90 0x91 0x92
1.22189999 1 0000418Cx Rx d 8 0x8C 0x8D 0x8E 0x8F 0x90 0x91 0x92 0x93
1.22239995 1 0000418Dx Rx d 8 0x8D 0x8E 0x8F 0x90 0x91 0x92 0x93 0x94
1.22300005 1 0000418Ex Rx d 8 0x8E 0x8F 0x90 0x91 0x92 0x93 0x94 0x95
1.22350001 1 0000418Fx Rx d 8 0x8A 0x8B 0x8C 0x8D 0x8E 0x8F 0x90 0x91
1.22399998 1 00004190x Rx d 8 0x90 0x91 0x92 0x93 0x94 0x95 0x96 0x97
1.24829996 1 00004185x Rx d 8 0x85 0x86 0x87 0x88 0x89 0x8A 0x8B 0x8C
1.24890006 1 00004189x Rx d 8 0x89 0x8A 0x8B 0x8C 0x8D 0x8E 0x8F 0x90
1.24940002 1 0000418Ax Rx d 8 0x8A 0x8B 0x8C 0x8D 0x8E 0x8F 0x90 0x91
1.27610004 1 00004185x Rx d 8 0x85 0x86 0x87 0x88 0x89 0x8A 0x8B 0x8C
1.27660000 1 00004186x Rx d 8 0x86 0x87 0x88 0x89 0x8A 0x8B 0x8C 0x8D
1.27719998 1 00004187x Rx d 8 0x87 0x88 0x89 0x8A 0x9C 0x1E 0xF4 0x22
1.27769995 1 00004188x Rx d 8 0x88 0x89 0x8A 0x8B 0x8C 0x8D 0x8E 0x8F
1.27820003 1 00004189x Rx d 8 0x89 0x8A 0x8B 0x8C 0x8D 0x8E 0x8F 0x90
1.27880001 1 0000418Ax Rx d 8 0x8A 0x8B 0x8C 0x8D 0x8E 0x8F 0x90 0x91
1.27929997 1 0000418Bx Rx d 8 0x8B 0x8C 0x8D 0x8E 0x8F 0x90 0x91 0x92
1.27989995 1 0000418Cx Rx d 8 0x8C 0x8D 0x8E 0x8F 0x90 0x91 0x92 0x93
1.28040004 1 0000418Dx Rx d 8 0x8D 0x8E 0x8F 0x90 0x91 0x92 0x93 0x94
1.28100002 1 0000418Ex Rx d 8 0x8E 0x8F 0x90 0x91 0x92 0x93 0x94 0x95
1.28149998 1 0000418Fx Rx d 8 0x8A 0x8B 0x8C 0x8D 0x8E 0x8F 0x90 0x91
1.28199995 1 00004190x Rx d 8 0x90 0x91 0x92 0x93 0x94 0x95 0x96 0x97
1.30630004 1 00004185x Rx d 8 0x85 0x86 0x87 0x88 0x89 0x8A 0x8B 0x8C
1.30690002 1 00004189x Rx d 8 0x89 0x8A 0x8B 0x8C 0x8D 0x8E 0x8F 0x90
1.30739999 1 0000418Ax Rx d 8 0x8A 0x8B 0x8C 0x8D 0x8E 0x8F 0x90 0x91
1.33659995 1 00004185x Rx d 8 0x85 0x86 0x87 0x88 0x89 0x8A 0x8B 0x8C
1.33710003 1 00004186x Rx d 8 0x86 0x87 0x88 0x89 0x8A 0x8B 0x8C 0x8D
1.33770001 1 00004187x Rx d 8 0x87 0x88 0x89 0x8A 0x88 0x1E 0x08 0x23
1.33819997 1 00004188x Rx d 8 0x88 0x89 0x8A 0x8B 0x8C 0x8D 0x8E 0x8F
1.33879995 1 00004189x Rx d 8 0x89 0x8A 0x8B 0x8C 0x8D 0x8E 0x8F 0x90
1.33930004 1 0000418Ax Rx d 8 0x8A 0x8B 0x8C 0x8D 0x8E 0x8F 0x90 0x91
1.33980000 1 0000418Bx Rx d 8 0x8B 0x8C 0x8D 0x8E 0x8F 0x90 0x91 0x92
1.34039998 1 0000418Cx Rx d 8 0x8C 0x8D 0x8E 0x8F 0x90 0x91 0x92 0x93
1.34089994 1 0000418Dx Rx d 8 0x8D 0x8E 0x8F 0x90 0x91 0x92 0x93 0x94
1.34150004 1 0000418Ex Rx d 8 0x8E 0x8F 0x90 0x91 0x92 0x93 0x94 0x95
1.34200001 1 0000418Fx Rx d 8 0x8A 0x8B 0x8C 0x8D 0x8E 0x8F 0x90 0x91
1.34259999 1 00004190x Rx d 8 0x90 0x91 0x92 0x93 0x94 0x95 0x96 0x97
1.36940002 1 00004185x Rx d 8 0x85 0x86 0x87 0x88 0x89 0x8A 0x8B 0x8C
1.36989999 1 00004189x Rx d 8 0x89 0x8A 0x8B 0x8C 0x8D 0x8E 0x8F 0x90
1.37049997 1 0000418Ax Rx d 8 0x8A 0x8B 0x8C 0x8D 0x8E 0x8F 0x90 0x91
1.39709997 1 00004185x Rx d 8 0x85 0x86 0x87 0x88 0x89 0x8A 0x8B 0x8C
1.39760005 1 00004186x Rx d 8 0x86 0x87 0x88 0x89 0x8A 0x8B 0x8C 0x8D
1.39820004 1 00004187x Rx d 8 0x87 0x88 0x89 0x8A 0x74 0x1E 0x1C 0x23
1.39870000 1 00004188x Rx d 8 0x88 0x89 0x8A 0x8B 0x8C 0x8D 0x8E 0x8F
1.39929998 1 00004189x Rx d 8 0x89 0x8A 0x8B 0x8C 0x8D 0x8E 0x8F 0x90
1.39979994 1 0000418Ax Rx d 8 0x8A 0x8B 0x8C 0x8D 0x8E 0x8F 0x90 0x91
1.40040004 1 0000418Bx Rx d 8 0x8B 0x8C 0x8D 0x8E 0x8F 0x90 0x91 0x92
1.40090001 1 0000418Cx Rx d 8 0x8C 0x8D 0x8E 0x8F 0x90 0x91 0x92 0x93
1.40149999 1 0000418Dx Rx d 8 0x8D 0x8E 0x8F 0x90 0x91 0x92 0x93 0x94
1.40199995 1 0000418Ex Rx d 8 0x8E 0x8F 0x90 0x91 0x92 0x93 0x94 0x95
1.40250003 1 0000418Fx Rx d 8 0x8A 0x8B 0x8C 0x8D 0x8E 0x8F 0x90 0x91
1.40310001 1 00004190x Rx d 8 0x90 0x91 0x92 0x93 0x94 0x95 0x96 0x97
1.42739999 1 00004185x Rx d 8 0x85 0x86 0x87 0x88 0x89 0x8A 0x8B 0x8C
1.42789996 1 00004189x Rx d 8 0x89 0x8A 0x8B 0x8C 0x8D 0x8E 0x8F 0x90
1.42850006 1 0000418Ax Rx d 8 0x8A 0x8B 0x8C 0x8D 0x8E 0x8F 0x90 0x91
1.45260000 1 00004185x Rx d 8 0x85 0x86 0x87 0x88 0x89 0x8A 0x8B 0x8C
1.45309997 1 00004186x Rx d 8 0x86 0x87 0x88 0x89 0x8A 0x8B 0x8C 0x8D
1.45369995 1 00004187x Rx d 8 0x87 0x88 0x89 0x8A 0x60 0x1E 0x30 0x23
1.45420003 1 00004188x Rx d 8 0x88 0x89 0x8A 0x8B 0x8C 0x8D 0x8E 0x8F
1.45480001 1 00004189x Rx d 8 0x89 0x8A 0x8B 0x8C 0x8D 0x8E 0x8F 0x90
1.45529997 1 0000418Ax Rx d 8 0x8A 0x8B 0x8C 0x8D 0x8E 0x8F 0x90 0x91
1.45580006 1 0000418Bx Rx d 8 0x8B 0x8C 0x8D 0x8E 0x8F 0x90 0x91 0x92
1.45640004 1 0000418Cx Rx d 8 0x8C 0x8D 0x8E 0x8F 0x90 0x91 0x92 0x93
1.45690000 1 0000418Dx Rx d 8 0x8D 0x8E 0x8F 0x90 0x91 0x92 0x93 0x94
1.45749998 1 0000418Ex Rx d 8 0x8E 0x8F 0x90 0x91 0x92 0x93 0x94 0x95
1.45799994 1 0000418Fx Rx d 8 0x8A 0x8B 0x8C 0x8D 0x8E 0x8F 0x90 0x91
1.45850003 1 00004190x Rx d 8 0x90 0x91 0x92 0x93 0x94 0x95 0x96 0x97
1.48280001 1 00004185x Rx d 8 0x85 0x86 0x87 0x88 0x89 0x8A 0x8B 0x8C
1.48339999 1 00004189x Rx d 8 0x89 0x8A 0x8B 0x8C 0x8D 0x8E 0x8F 0x90
1.48389995 1 0000418Ax Rx d 8 0x8A 0x8B 0x8C 0x8D 0x8E 0x8F 0x90 0x91
1.51059997 1 00004185x Rx d 8 0x85 0x86 0x87 0x88 0x89 0x8A 0x8B 0x8C
1.51110005 1 00004186x Rx d 8 0x86 0x87 0x88 0x89 0x8A 0x8B 0x8C 0x8D
1.51170003 1 00004187x Rx d 8 0x87 0x88 0x89 0x8A 0x4C 0x1E 0x44 0x23
1.51220000 1 00004188x Rx d 8 0x88 0x89 0x8A 0x8B 0x8C 0x8D 0x8E 0x8F
1.51279998 1 00004189x Rx d 8 0x89 0x8A 0x8B 0x8C 0x8D 0x8E 0x8F 0x90
1.51329994 1 0000418Ax Rx d 8 0x8A 0x8B 0x8C 0x8D 0x8E 0x8F 0x90 0x91
1.51380002 1 0000418Bx Rx d 8 0x8B 0x8C 0x8D 0x8E 0x8F 0x90 0x91 0x92
1.51440001 1 0000418Cx Rx d 8 0x8C 0x8D 0x8E 0x8F 0x90 0x91 0x92 0x93
1.51489997 1 0000418Dx Rx d 8 0x8D 0x8E 0x8F 0x90 0x91 0x92 0x93 0x94
1.51549995 1 0000418Ex Rx d 8 0x8E 0x8F 0x90 0x91 0x92 0x93 0x94 0x95
1.51600003 1 0000418Fx Rx d 8 0x8A 0x8B 0x8C 0x8D 0x8E 0x8F 0x90 0x91
1.51660001 1 00004190x Rx d 8 0x90 0x91 0x92 0x93 0x94 0x95 0x96 0x97
1.54340005 1 00004185x Rx d 8 0x85 0x86 0x87 0x88 0x89 0x8A 0x8B 0x8C
1.54390001 1 00004189x Rx d 8 0x89 0x8A 0x8B 0x8C 0x8D 0x8E 0x8F 0x90
1.54449999 1 0000418Ax Rx d 8 0x8A 0x8B 0x8C 0x8D 0x8E 0x8F 0x90 0x91
1.57609999 1 00004185x Rx d 8 0x85 0x86 0x87 0x88 0x89 0x8A 0x8B 0x8C
1.57669997 1 00004186x Rx d 8 0x86 0x87 0x88 0x89 0x8A 0x8B 0x8C 0x8D
1.57720006 1 00004187x Rx d 8 0x87 0x88 0x89 0x8A 0x38 0x1E 0x58 0x23
1.57780004 1 00004188x Rx d 8 0x88 0x89 0x8A 0x8B 0x8C 0x8D 0x8E 0x8F
1.57830000 1 00004189x Rx d 8 0x89 0x8A 0x8B 0x8C 0x8D 0x8E 0x8F 0x90
1.57889998 1 0000418Ax Rx d 8 0x8A 0x8B 0x8C 0x8D 0x8E 0x8F 0x90 0x91
1.57939994 1 0000418Bx Rx d 8 0x8B 0x8C 0x8D 0x8E 0x8F 0x90 0x91 0x92
1.57990003 1 0000418Cx Rx d 8 0x8C 0x8D 0x8E 0x8F 0x90 0x91 0x92 0x93
1.58050001 1 0000418Dx Rx d 8 0x8D 0x8E 0x8F 0x90 0x91 0x92 0x93 0x94
1.58099997 1 0000418Ex Rx d 8 0x8E 0x8F 0x90 0x91 0x92 0x93 0x94 0x95
1.58159995 1 0000418Fx Rx d 8 0x8A 0x8B 0x8C 0x8D 0x8E 0x8F 0x90 0x91
1.58210003 1 00004190x Rx d 8 0x90 0x91 0x92 0x93 0x94 0x95 0x96 0x97
1.60640001 1 00004185x Rx d 8 0x85 0x86 0x87 0x88 0x89 0x8A 0x8B 0x8C
1.60689998 1 00004189x Rx d 8 0x89 0x8A 0x8B 0x8C 0x8D 0x8E 0x8F 0x90
1.60749996 1 0000418Ax Rx d 8 0x8A 0x8B 0x8C 0x8D 0x8E 0x8F 0x90 0x91
1.63409996 1 00004185x Rx d 8 0x85 0x86 0x87 0x88 0x89 0x8A 0x8B 0x8C
1.63469994 1 00004186x Rx d 8 0x86 0x87 0x88 0x89 0x8A 0x8B 0x8C 0x8D
1.63520002 1 00004187x Rx d 8 0x87 0x88 0x89 0x8A 0x24 0x1E 0x6C 0x23
1.63580000 1 00004188x Rx d 8 0x88 0x89 0x8A 0x8B 0x8C 0x8D 0x8E 0x8F
1.63629997 1 00004189x Rx d 8 0x89 0x8A 0x8B 0x8C 0x8D 0x8E 0x8F 0x90
1.63689995 1 0000418Ax Rx d 8 0x8A 0x8B 0x8C 0x8D 0x8E 0x8F 0x90 0x91
1.63740003 1 0000418Bx Rx d 8 0x8B 0x8C 0x8D 0x8E 0x8F 0x90 0x91 0x92
1.63789999 1 0000418Cx Rx d 8 0x8C 0x8D 0x8E 0x8F 0x90 0x91 0x92 0x93
1.63849998 1 0000418Dx Rx d 8 0x8D 0x8E 0x8F 0x90 0x91 0x92 0x93 0x94
1.63900006 1 0000418Ex Rx d 8 0x8E 0x8F 0x90 0x91 0x92 0x93 0x94 0x95
1.63960004 1 0000418Fx Rx d 8 0x8A 0x8B 0x8C 0x8D 0x8E 0x8F 0x90 0x91
1.64010000 1 00004190x Rx d 8 0x90 0x91 0x92 0x93 0x94 0x95 0x96 0x97
1.66439998 1 00004185x Rx d 8 0x85 0x86 0x87 0x88 0x89 0x8A 0x8B 0x8C
1.66489995 1 00004189x Rx d 8 0x89 0x8A 0x8B 0x8C 0x8D 0x8E 0x8F 0x90
1.66550004 1 0000418Ax Rx d 8 0x8A 0x8B 0x8C 0x8D 0x8E 0x8F 0x90 0x91
1.69210005 1 00004185x Rx d 8 0x85 0x86 0x87 0x88 0x89 0x8A 0x8B 0x8C
1.69270003 1 00004186x Rx d 8 0x86 0x87 0x88 0x89 0x8A 0x8B 0x8C 0x8D
1.69319999 1 00004187x Rx d 8 0x87 0x88 0x89 0x8A 0x10 0x1E 0x80 0x23
1.69379997 1 00004188x Rx d 8 0x88 0x89 0x8A 0x8B 0x8C 0x8D 0x8E 0x8F
1.69430006 1 00004189x Rx d 8 0x89 0x8A 0x8B 0x8C 0x8D 0x8E 0x8F 0x90
1.69490004 1 0000418Ax Rx d 8 0x8A 0x8B 0x8C 0x8D 0x8E 0x8F 0x90 0x91
1.69540000 1 0000418Bx Rx d 8 0x8B 0x8C 0x8D 0x8E 0x8F 0x90 0x91 0x92
1.69589996 1 0000418Cx Rx d 8 0x8C 0x8D 0x8E 0x8F 0x90 0x91 0x92 0x93
1.69649994 1 0000418Dx Rx d 8 0x8D 0x8E 0x8F 0x90 0x91 0x92 0x93 0x94
1.69700003 1 0000418Ex Rx d 8 0x8E 0x8F 0x90 0x91 0x92 0x93 0x94 0x95
1.69760001 1 0000418Fx Rx d 8 0x8A 0x8B 0x8C 0x8D 0x8E 0x8F 0x90 0x91
1.69809997 1 00004190x Rx d 8 0x90 0x91 0x92 0x93 0x94 0x95 0x96 0x97
1.72739995 1 00004185x Rx d 8 0x85 0x86 0x87 0x88 0x89 0x8A 0x8B 0x8C
1.72800004 1 00004189x Rx d 8 0x89 0x8A 0x8B 0x8C 0x8D 0x8E 0x8F 0x90
1.72850001 1 0000418Ax Rx d 8 0x8A 0x8B 0x8C 0x8D 0x8E 0x8F 0x90 0x91
1.75269997 1 00004185x Rx d 8 0x85 0x86 0x87 0x88 0x89 0x8A 0x8B 0x8C
1.75320005 1 00004186x Rx d 8 0x86 0x87 0x88 0x89 0x8A 0x8B 0x8C 0x8D
1.75370002 1 00004187x Rx d 8 0x87 0x88 0x89 0x8A 0xFC 0x1D 0x94 0x23
1.75430000 1 00004188x Rx d 8 0x88 0x89 0x8A 0x8B 0x8C 0x8D 0x8E 0x8F
1.75479996 1 00004189x Rx d 8 0x89 0x8A 0x8B 0x8C 0x8D 0x8E 0x8F 0x90
1.75539994 1 0000418Ax Rx d 8 0x8A 0x8B 0x8C 0x8D 0x8E 0x8F 0x90 0x91
1.75590003 1 0000418Bx Rx d 8 0x8B 0x8C 0x8D 0x8E 0x8F 0x90 0x91 0x92
1.75650001 1 0000418Cx Rx d 8 0x8C 0x8D 0x8E 0x8F 0x90 0x91 0x92 0x93
1.75699997 1 0000418Dx Rx d 8 0x8D 0x8E 0x8F 0x90 0x91 0x92 0x93 0x94
1.75750005 1 0000418Ex Rx d 8 0x8E 0x8F 0x90 0x91 0x92 0x93 0x94 0x95
1.75810003 1 0000418Fx Rx d 8 0x8A 0x8B 0x8C 0x8D 0x8E 0x8F 0x90 0x91
1.75860000 1 00004190x Rx d 8 0x90 0x91 0x92 0x93 0x94 0x95 0x96 0x97
1.78799999 1 00004185x Rx d 8 0x85 0x86 0x87 0x88 0x89 0x8A 0x8B 0x8C
1.78849995 1 00004189x Rx d 8 0x89 0x8A 0x8B 0x8C 0x8D 0x8E 0x8F 0x90
1.78910005 1 0000418Ax Rx d 8 0x8A 0x8B 0x8C 0x8D 0x8E 0x8F 0x90 0x91
1.81320000 1 00004185x Rx d 8 0x85 0x86 0x87 0x88 0x89 0x8A 0x8B 0x8C
1.81369996 1 00004186x Rx d 8 0x86 0x87 0x88 0x89 0x8A 0x8B 0x8C 0x8D
1.81429994 1 00004187x Rx d 8 0x87 0x88 0x89 0x8A 0xE8 0x1D 0xA8 0x23
1.81480002 1 00004188x Rx d 8 0x88 0x89 0x8A 0x8B 0x8C 0x8D 0x8E 0x8F
1.81540000 1 00004189x Rx d 8 0x89 0x8A 0x8B 0x8C 0x8D 0x8E 0x8F 0x90
1.81589997 1 0000418Ax Rx d 8 0x8A 0x8B 0x8C 0x8D 0x8E 0x8F 0x90 0x91
1.81640005 1 0000418Bx Rx d 8 0x8B 0x8C 0x8D 0x8E 0x8F 0x90 0x91 0x92
1.81700003 1 0000418Cx Rx d 8 0x8C 0x8D 0x8E 0x8F 0x90 0x91 0x92 0x93
1.81750000 1 0000418Dx Rx d 8 0x8D 0x8E 0x8F 0x90 0x91 0x92 0x93 0x94
1.81809998 1 0000418Ex Rx d 8 0x8E 0x8F 0x90 0x91 0x92 0x93 0x94 0x95
1.81860006 1 0000418Fx Rx d 8 0x8A 0x8B 0x8C 0x8D 0x8E 0x8F 0x90 0x91
1.81920004 1 00004190x Rx d 8 0x90 0x91 0x92 0x93 0x94 0x95 0x96 0x97
1.84340000 1 00004185x Rx d 8 0x85 0x86 0x87 0x88 0x89 0x8A 0x8B 0x8C
1.84399998 1 00004189x Rx d 8 0x89 0x8A 0x8B 0x8C 0x8D 0x8E 0x8F 0x90
1.84449995 1 0000418Ax Rx d 8 0x8A 0x8B 0x8C 0x8D 0x8E 0x8F 0x90 0x91
1.87119997 1 00004185x Rx d 8 0x85 0x86 0x87 0x88 0x89 0x8A 0x8B 0x8C
1.87170005 1 00004186x Rx d 8 0x86 0x87 0x88 0x89 0x8A 0x8B 0x8C 0x8D
1.87230003 1 00004187x Rx d 8 0x87 0x88 0x89 0x8A 0xD4 0x1D 0xBC 0x23
1.87279999 1 00004188x Rx d 8 0x88 0x89 0x8A 0x8B 0x8C 0x8D 0x8E 0x8F
1.87329996 1 00004189x Rx d 8 0x89 0x8A 0x8B 0x8C 0x8D 0x8E 0x8F 0x90
1.87390006 1 0000418Ax Rx d 8 0x8A 0x8B 0x8C 0x8D 0x8E 0x8F 0x90 0x91
1.87440002 1 0000418Bx Rx d 8 0x8B 0x8C 0x8D 0x8E 0x8F 0x90 0x91 0x92
1.87500000 1 0000418Cx Rx d 8 0x8C 0x8D 0x8E 0x8F 0x90 0x91 0x92 0x93
1.87549996 1 0000418Dx Rx d 8 0x8D 0x8E 0x8F 0x90 0x91 0x92 0x93 0x94
1.87609994 1 0000418Ex Rx d 8 0x8E 0x8F 0x90 0x91 0x92 0x93 0x94 0x95
1.87660003 1 0000418Fx Rx d 8 0x8A 0x8B 0x8C 0x8D 0x8E 0x8F 0x90 0x91
1.87709999 1 00004190x Rx d 8 0x90 0x91 0x92 0x93 0x94 0x95 0x96 0x97
1.90649998 1 00004185x Rx d 8 0x85 0x86 0x87 0x88 0x89 0x8A 0x8B 0x8C
1.90699995 1 00004189x Rx d 8 0x89 0x8A 0x8B 0x8C 0x8D 0x8E 0x8F 0x90
1.90760005 1 0000418Ax Rx d 8 0x8A 0x8B 0x8C 0x8D 0x8E 0x8F 0x90 0x91
1.93420005 1 00004185x Rx d 8 0x85 0x86 0x87 0x88 0x89 0x8A 0x8B 0x8C
1.93480003 1 00004186x Rx d 8 0x86 0x87 0x88 0x89 0x8A 0x8B 0x8C 0x8D
1.93529999 1 00004187x Rx d 8 0x87 0x88 0x89 0x8A 0xC0 0x1D 0xD0 0x23
1.93579996 1 00004188x Rx d 8 0x88 0x89 0x8A 0x8B 0x8C 0x8D 0x8E 0x8F
1.93640006 1 00004189x Rx d 8 0x89 0x8A 0x8B 0x8C 0x8D 0x8E 0x8F 0x90
1.93690002 1 0000418Ax Rx d 8 0x8A 0x8B 0x8C 0x8D 0x8E 0x8F 0x90 0x91
1.93750000 1 0000418Bx Rx d 8 0x8B 0x8C 0x8D 0x8E 0x8F 0x90 0x91 0x92
1.93799996 1 0000418Cx Rx d 8 0x8C 0x8D 0x8E 0x8F 0x90 0x91 0x92 0x93
1.93859994 1 0000418Dx Rx d 8 0x8D 0x8E 0x8F 0x90 0x91 0x92 0x93 0x94
1.93910003 1 0000418Ex Rx d 8 0x8E 0x8F 0x90 0x91 0x92 0x93 0x94 0x95
1.93959999 1 0000418Fx Rx d 8 0x8A 0x8B 0x8C 0x8D 0x8E 0x8F 0x90 0x91
1.94019997 1 00004190x Rx d 8 0x90 0x91 0x92 0x93 0x94 0x95 0x96 0x97
1.96700001 1 00004185x Rx d 8 0x85 0x86 0x87 0x88 0x89 0x8A 0x8B 0x8C
1.96749997 1 00004189x Rx d 8 0x89 0x8A 0x8B 0x8C 0x8D 0x8E 0x8F 0x90
1.96809995 1 0000418Ax Rx d 8 0x8A 0x8B 0x8C 0x8D 0x8E 0x8F 0x90 0x91
1.99220002 1 00004185x Rx d 8 0x85 0x86 0x87 0x88 0x89 0x8A 0x8B 0x8C
1.99280000 1 00004186x Rx d 8 0x86 0x87 0x88 0x89 0x8A 0x8B 0x8C 0x8D
1.99329996 1 00004187x Rx d 8 0x87 0x88 0x89 0x8A 0xAC 0x1D 0xE4 0x23
1.99380004 1 00004188x Rx d 8 0x88 0x89 0x8A 0x8B 0x8C 0x8D 0x8E 0x8F
1.99440002 1 00004189x Rx d 8 0x89 0x8A 0x8B 0x8C 0x8D 0x8E 0x8F 0x90
1.99489999 1 0000418Ax Rx d 8 0x8A 0x8B 0x8C 0x8D 0x8E 0x8F 0x90 0x91
1.99549997 1 0000418Bx Rx d 8 0x8B 0x8C 0x8D 0x8E 0x8F 0x90 0x91 0x92
1.99600005 1 0000418Cx Rx d 8 0x8C 0x8D 0x8E 0x8F 0x90 0x91 0x92 0x93
1.99660003 1 0000418Dx Rx d 8 0x8D 0x8E 0x8F 0x90 0x91 0x92 0x93 0x94
1.99710000 1 0000418Ex Rx d 8 0x8E 0x8F 0x90 0x91 0x92 0x93 0x94 0x95
1.99759996 1 0000418Fx Rx d 8 0x8A 0x8B 0x8C 0x8D 0x8E 0x8F 0x90 0x91
1.99820006 1 00004190x Rx d 8 0x90 0x91 0x92 0x93 0x94 0x95 0x96 0x97
2.02250004 1 00004185x Rx d 8 0x85 0x86 0x87 0x88 0x89 0x8A 0x8B 0x8C
2.02300000 1 00004189x Rx d 8 0x89 0x8A 0x8B 0x8C 0x8D 0x8E 0x8F 0x90
2.02360010 1 0000418Ax Rx d 8 0x8A 0x8B 0x8C 0x8D 0x8E 0x8F 0x90 0x91
2.05019999 1 00004185x Rx d 8 0x85 0x86 0x87 0x88 0x89 0x8A 0x8B 0x8C
2.05069995 1 00004186x Rx d 8 0x86 0x87 0x88 0x89 0x8A 0x8B 0x8C 0x8D
2.05240011 1 00004189x Rx d 8 0x89 0x8A 0x8B 0x8C 0x8D 0x8E 0x8F 0x90
2.05290008 1 0000418Ax Rx d 8 0x8A 0x8B 0x8C 0x8D 0x8E 0x8F 0x90 0x91
2.05349994 1 0000418Bx Rx d 8 0x8B 0x8C 0x8D 0x8E 0x8F 0x90 0x91 0x92
2.05399990 1 0000418Cx Rx d 8 0x8C 0x8D 0x8E 0x8F 0x90 0x91 0x92 0x93
2.05460000 1 0000418Dx Rx d 8 0x8D 0x8E 0x8F 0x90 0x91 0x92 0x93 0x94
2.05509996 1 0000418Ex Rx d 8 0x8E 0x8F 0x90 0x91 0x92 0x93 0x94 0x95
2.05559993 1 0000418Fx Rx d 8 0x8A 0x8B 0x8C 0x8D 0x8E 0x8F 0x90 0x91
2.05620003 1 00004190x Rx d 8 0x90 0x91 0x92 0x93 0x94 0x95 0x96 0x97
2.09060001 1 00004185x Rx d 8 0x85 0x86 0x87 0x88 0x89 0x8A 0x8B 0x8C
2.09109998 1 00004189x Rx d 8 0x89 0x8A 0x8B 0x8C 0x8D 0x8E 0x8F 0x90
2.09170008 1 0000418Ax Rx d 8 0x8A 0x8B 0x8C 0x8D 0x8E 0x8F 0x90 0x91
2.11829996 1 00004185x Rx d 8 0x85 0x86 0x87 0x88 0x89 0x8A 0x8B 0x8C
2.11879992 1 00004186x Rx d 8 0x86 0x87 0x88 0x89 0x8A 0x8B 0x8C 0x8D
2.11940002 1 00004187x Rx d 8 0x87 0x88 0x89 0x8A 0x84 0x1D 0x0C 0x24
2.11989999 1 00004188x Rx d 8 0x88 0x89 0x8A 0x8B 0x8C 0x8D 0x8E 0x8F
2.12050009 1 00004189x Rx d 8 0x89 0x8A 0x8B 0x8C 0x8D 0x8E 0x8F 0x90
2.12100005 1 0000418Ax Rx d 8 0x8A 0x8B 0x8C 0x8D 0x8E 0x8F 0x90 0x91
2.12159991 1 0000418Bx Rx d 8 0x8B 0x8C 0x8D 0x8E 0x8F 0x90 0x91 0x92
2.12210011 1 0000418Cx Rx d 8 0x8C 0x8D 0x8E 0x8F 0x90 0x91 0x92 0x93
2.12260008 1 0000418Dx Rx d 8 0x8D 0x8E 0x8F 0x90 0x91 0x92 0x93 0x94
2.12319994 1 0000418Ex Rx d 8 0x8E 0x8F 0x90 0x91 0x92 0x93 0x94 0x95
2.12369990 1 0000418Fx Rx d 8 0x8A 0x8B 0x8C 0x8D 0x8E 0x8F 0x90 0x91
2.12430000 1 00004190x Rx d 8 0x90 0x91 0x92 0x93 0x94 0x95 0x96 0x97
2.14860010 1 00004185x Rx d 8 0x85 0x86 0x87 0x88 0x89 0x8A 0x8B 0x8C
2.14910007 1 00004189x Rx d 8 0x89 0x8A 0x8B 0x8C 0x8D 0x8E 0x8F 0x90
2.14960003 1 0000418Ax Rx d 8 0x8A 0x8B 0x8C 0x8D 0x8E 0x8F 0x90 0x91
2.17880011 1 00004185x Rx d 8 0x85 0x86 0x87 0x88 0x89 0x8A 0x8B 0x8C
2.17939997 1 00004186x Rx d 8 0x86 0x87 0x88 0x89 0x8A 0x8B 0x8C 0x8D
2.17989993 1 00004187x Rx d 8 0x87 0x88 0x89 0x8A 0x70 0x1D 0x20 0x24
2.18039989 1 00004188x Rx d 8 0x88 0x89 0x8A 0x8B 0x8C 0x8D 0x8E 0x8F
2.18099999 1 00004189x Rx d 8 0x89 0x8A 0x8B 0x8C 0x8D 0x8E 0x8F 0x90
2.18149996 1 0000418Ax Rx d 8 0x8A 0x8B 0x8C 0x8D 0x8E 0x8F 0x90 0x91
2.18210006 1 0000418Bx Rx d 8 0x8B 0x8C 0x8D 0x8E 0x8F 0x90 0x91 0x92
2.18260002 1 0000418Cx Rx d 8 0x8C 0x8D 0x8E 0x8F 0x90 0x91 0x92 0x93
2.18319988 1 0000418Dx Rx d 8 0x8D 0x8E 0x8F 0x90 0x91 0x92 0x93 0x94
2.18370008 1 0000418Ex Rx d 8 0x8E 0x8F 0x90 0x91 0x92 0x93 0x94 0x95
2.18420005 1 0000418Fx Rx d 8 0x8A 0x8B 0x8C 0x8D 0x8E 0x8F 0x90 0x91
2.18479991 1 00004190x Rx d 8 0x90 0x91 0x92 0x93 0x94 0x95 0x96 0x97
2.21160007 1 00004185x Rx d 8 0x85 0x86 0x87 0x88 0x89 0x8A 0x8B 0x8C
2.21210003 1 00004189x Rx d 8 0x89 0x8A 0x8B 0x8C 0x8D 0x8E 0x8F 0x90
2.21269989 1 0000418Ax Rx d 8 0x8A 0x8B 0x8C 0x8D 0x8E 0x8F 0x90 0x91
2.23930001 1 00004185x Rx d 8 0x85 0x86 0x87 0x88 0x89 0x8A 0x8B 0x8C
2.23990011 1 00004186x Rx d 8 0x86 0x87 0x88 0x89 0x8A 0x8B 0x8C 0x8D
2.24040008 1 00004187x Rx d 8 0x87 0x88 0x89 0x8A 0x5C 0x1D 0x34 0x24
2.24090004 1 00004188x Rx d 8 0x88 0x89 0x8A 0x8B 0x8C 0x8D 0x8E 0x8F
2.24149990 1 00004189x Rx d 8 0x89 0x8A 0x8B 0x8C 0x8D 0x8E 0x8F 0x90
2.24200010 1 0000418Ax Rx d 8 0x8A 0x8B 0x8C 0x8D 0x8E 0x8F 0x90 0x91
2.24259996 1 0000418Bx Rx d 8 0x8B 0x8C 0x8D 0x8E 0x8F 0x90 0x91 0x92
2.24309993 1 0000418Cx Rx d 8 0x8C 0x8D 0x8E 0x8F 0x90 0x91 0x92 0x93
2.24370003 1 0000418Dx Rx d 8 0x8D 0x8E 0x8F 0x90 0x91 0x92 0x93 0x94
2.24419999 1 0000418Ex Rx d 8 0x8E 0x8F 0x90 0x91 0x92 0x93 0x94 0x95
2.24480009 1 0000418Fx Rx d 8 0x8A 0x8B 0x8C 0x8D 0x8E 0x8F 0x90 0x91
2.24530005 1 00004190x Rx d 8 0x90 0x91 0x92 0x93 0x94 0x95 0x96 0x97
2.27209997 1 00004185x Rx d 8 0x85 0x86 0x87 0x88 0x89 0x8A 0x8B 0x8C
2.27270007 1 00004189x Rx d 8 0x89 0x8A 0x8B 0x8C 0x8D 0x8E 0x8F 0x90
2.27320004 1 0000418Ax Rx d 8 0x8A 0x8B 0x8C 0x8D 0x8E 0x8F 0x90 0x91
2.29990005 1 00004185x Rx d 8 0x85 0x86 0x87 0x88 0x89 0x8A 0x8B 0x8C
2.30040002 1 00004186x Rx d 8 0x86 0x87 0x88 0x89 0x8A 0x8B 0x8C 0x8D
2.30089998 1 00004187x Rx d 8 0x87 0x88 0x89 0x8A 0x48 0x1D 0x48 0x24
2.30150008 1 00004188x Rx d 8 0x88 0x89 0x8A 0x8B 0x8C 0x8D 0x8E 0x8F
2.30200005 1 00004189x Rx d 8 0x89 0x8A 0x8B 0x8C 0x8D 0x8E 0x8F 0x90
2.30259991 1 0000418Ax Rx d 8 0x8A 0x8B 0x8C 0x8D 0x8E 0x8F 0x90 0x91
2.30310011 1 0000418Bx Rx d 8 0x8B 0x8C 0x8D 0x8E 0x8F 0x90 0x91 0x92
2.30369997 1 0000418Cx Rx d 8 0x8C 0x8D 0x8E 0x8F 0x90 0x91 0x92 0x93
2.30419993 1 0000418Dx Rx d 8 0x8D 0x8E 0x8F 0x90 0x91 0x92 0x93 0x94
2.30469990 1 0000418Ex Rx d 8 0x8E 0x8F 0x90 0x91 0x92 0x93 0x94 0x95
2.30530000 1 0000418Fx Rx d 8 0x8A 0x8B 0x8C 0x8D 0x8E 0x8F 0x90 0x91
2.30579996 1 00004190x Rx d 8 0x90 0x91 0x92 0x93 0x94 0x95 0x96 0x97
2.33010006 1 00004185x Rx d 8 0x85 0x86 0x87 0x88 0x89 0x8A 0x8B 0x8C
2.33069992 1 00004189x Rx d 8 0x89 0x8A 0x8B 0x8C 0x8D 0x8E 0x8F 0x90
2.33119988 1 0000418Ax Rx d 8 0x8A 0x8B 0x8C 0x8D 0x8E 0x8F 0x90 0x91
2.35789990 1 00004185x Rx d 8 0x85 0x86 0x87 0x88 0x89 0x8A 0x8B 0x8C
2.35840011 1 00004186x Rx d 8 0x86 0x87 0x88 0x89 0x8A 0x8B 0x8C 0x8D
2.35890007 1 00004187x Rx d 8 0x87 0x88 0x89 0x8A 0x34 0x1D 0x5C 0x24
2.35949993 1 00004188x Rx d 8 0x88 0x89 0x8A 0x8B 0x8C 0x8D 0x8E 0x8F
2.35999990 1 00004189x Rx d 8 0x89 0x8A 0x8B 0x8C 0x8D 0x8E 0x8F 0x90
2.36059999 1 0000418Ax Rx d 8 0x8A 0x8B 0x8C 0x8D 0x8E 0x8F 0x90 0x91
2.36109996 1 0000418Bx Rx d 8 0x8B 0x8C 0x8D 0x8E 0x8F 0x90 0x91 0x92
2.36159992 1 0000418Cx Rx d 8 0x8C 0x8D 0x8E 0x8F 0x90 0x91 0x92 0x93
2.36220002 1 0000418Dx Rx d 8 0x8D 0x8E 0x8F 0x90 0x91 0x92 0x93 0x94
2.36269999 1 0000418Ex Rx d 8 0x8E 0x8F 0x90 0x91 0x92 0x93 0x94 0x95
2.36330009 1 0000418Fx Rx d 8 0x8A 0x8B 0x8C 0x8D 0x8E 0x8F 0x90 0x91
2.36380005 1 00004190x Rx d 8 0x90 0x91 0x92 0x93 0x94 0x95 0x96 0x97
2.39059997 1 00004185x Rx d 8 0x85 0x86 0x87 0x88 0x89 0x8A 0x8B 0x8C
2.39120007 1 00004189x Rx d 8 0x89 0x8A 0x8B 0x8C 0x8D 0x8E 0x8F 0x90
2.39170003 1 0000418Ax Rx d 8 0x8A 0x8B 0x8C 0x8D 0x8E 0x8F 0x90 0x91
2.42090011 1 00004185x Rx d 8 0x85 0x86 0x87 0x88 0x89 0x8A 0x8B 0x8C
2.42140007 1 00004186x Rx d 8 0x86 0x87 0x88 0x89 0x8A 0x8B 0x8C 0x8D
2.42199993 1 00004187x Rx d 8 0x87 0x88 0x89 0x8A 0x20 0x1D 0x70 0x24
2.42249990 1 00004188x Rx d 8 0x88 0x89 0x8A 0x8B 0x8C 0x8D 0x8E 0x8F
2.42309999 1 00004189x Rx d 8 0x89 0x8A 0x8B 0x8C 0x8D 0x8E 0x8F 0x90
2.42359996 1 0000418Ax Rx d 8 0x8A 0x8B 0x8C 0x8D 0x8E 0x8F 0x90 0x91
2.42409992 1 0000418Bx Rx d 8 0x8B 0x8C 0x8D 0x8E 0x8F 0x90 0x91 0x92
2.42470002 1 0000418Cx Rx d 8 0x8C 0x8D 0x8E 0x8F 0x90 0x91 0x92 0x93
2.42519999 1 0000418Dx Rx d 8 0x8D 0x8E 0x8F 0x90 0x91 0x92 0x93 0x94
2.42580009 1 0000418Ex Rx d 8 0x8E 0x8F 0x90 0x91 0x92 0x93 0x94 0x95
2.42630005 1 0000418Fx Rx d 8 0x8A 0x8B 0x8C 0x8D 0x8E 0x8F 0x90 0x91
2.42689991 1 00004190x Rx d 8 0x90 0x91 0x92 0x93 0x94 0x95 0x96 0x97
2.45120001 1 00004185x Rx d 8 0x85 0x86 0x87 0x88 0x89 0x8A 0x8B 0x8C
2.45169997 1 00004189x Rx d 8 0x89 0x8A 0x8B 0x8C 0x8D 0x8E 0x8F 0x90
2.45219994 1 0000418Ax Rx d 8 0x8A 0x8B 0x8C 0x8D 0x8E 0x8F 0x90 0x91
2.47639990 1 00004185x Rx d 8 0x85 0x86 0x87 0x88 0x89 0x8A 0x8B 0x8C
2.47690010 1 00004186x Rx d 8 0x86 0x87 0x88 0x89 0x8A 0x8B 0x8C 0x8D
2.47740006 1 00004187x Rx d 8 0x87 0x88 0x89 0x8A 0x0C 0x1D 0x84 0x24
2.47799993 1 00004188x Rx d 8 0x88 0x89 0x8A 0x8B 0x8C 0x8D 0x8E 0x8F
2.47849989 1 00004189x Rx d 8 0x89 0x8A 0x8B 0x8C 0x8D 0x8E 0x8F 0x90
2.47909999 1 0000418Ax Rx d 8 0x8A 0x8B 0x8C 0x8D 0x8E 0x8F 0x90 0x91
2.47959995 1 0000418Bx Rx d 8 0x8B 0x8C 0x8D 0x8E 0x8F 0x90 0x91 0x92
2.48020005 1 0000418Cx Rx d 8 0x8C 0x8D 0x8E 0x8F 0x90 0x91 0x92 0x93
2.48070002 1 0000418Dx Rx d 8 0x8D 0x8E 0x8F 0x90 0x91 0x92 0x93 0x94
2.48130012 1 0000418Ex Rx d 8 0x8E 0x8F 0x90 0x91 0x92 0x93 0x94 0x95
2.48180008 1 0000418Fx Rx d 8 0x8A 0x8B 0x8C 0x8D 0x8E 0x8F 0x90 0x91
2.48230004 1 00004190x Rx d 8 0x90 0x91 0x92 0x93 0x94 0x95 0x96 0x97
2.50659990 1 00004185x Rx d 8 0x85 0x86 0x87 0x88 0x89 0x8A 0x8B 0x8C
2.50720000 1 00004189x Rx d 8 0x89 0x8A 0x8B 0x8C 0x8D 0x8E 0x8F 0x90
2.50769997 1 0000418Ax Rx d 8 0x8A 0x8B 0x8C 0x8D 0x8E 0x8F 0x90 0x91
2.53940010 1 00004185x Rx d 8 0x85 0x86 0x87 0x88 0x89 0x8A 0x8B 0x8C
2.53990006 1 00004186x Rx d 8 0x86 0x87 0x88 0x89 0x8A 0x8B 0x8C 0x8D
2.54049993 1 00004187x Rx d 8 0x87 0x88 0x89 0x8A 0xF8 0x1C 0x98 0x24
2.54099989 1 00004188x Rx d 8 0x88 0x89 0x8A 0x8B 0x8C 0x8D 0x8E 0x8F
2.54159999 1 00004189x Rx d 8 0x89 0x8A 0x8B 0x8C 0x8D 0x8E 0x8F 0x90
2.54209995 1 0000418Ax Rx d 8 0x8A 0x8B 0x8C 0x8D 0x8E 0x8F 0x90 0x91
2.54270005 1 0000418Bx Rx d 8 0x8B 0x8C 0x8D 0x8E 0x8F 0x90 0x91 0x92
2.54320002 1 0000418Cx Rx d 8 0x8C 0x8D 0x8E 0x8F 0x90 0x91 0x92 0x93
2.54380012 1 0000418Dx Rx d 8 0x8D 0x8E 0x8F 0x90 0x91 0x92 0x93 0x94
2.54430008 1 0000418Ex Rx d 8 0x8E 0x8F 0x90 0x91 0x92 0x93 0x94 0x95
2.54480004 1 0000418Fx Rx d 8 0x8A 0x8B 0x8C 0x8D 0x8E 0x8F 0x90 0x91
2.54539990 1 00004190x Rx d 8 0x90 0x91 0x92 0x93 0x94 0x95 0x96 0x97
2.56970000 1 00004185x Rx d 8 0x85 0x86 0x87 0x88 0x89 0x8A 0x8B 0x8C
2.57019997 1 00004189x Rx d 8 0x89 0x8A 0x8B 0x8C 0x8D 0x8E 0x8F 0x90
2.57080007 1 0000418Ax Rx d 8 0x8A 0x8B 0x8C 0x8D 0x8E 0x8F 0x90 0x91
2.59990001 1 00004185x Rx d 8 0x85 0x86 0x87 0x88 0x89 0x8A 0x8B 0x8C
2.60050011 1 00004186x Rx d 8 0x86 0x87 0x88 0x89 0x8A 0x8B 0x8C 0x8D
2.60100007 1 00004187x Rx d 8 0x87 0x88 0x89 0x8A 0xE4 0x1C 0xAC 0x24
2.60150003 1 00004188x Rx d 8 0x88 0x89 0x8A 0x8B 0x8C 0x8D 0x8E 0x8F
2.60209990 1 00004189x Rx d 8 0x89 0x8A 0x8B 0x8C 0x8D 0x8E 0x8F 0x90
2.60260010 1 0000418Ax Rx d 8 0x8A 0x8B 0x8C 0x8D 0x8E 0x8F 0x90 0x91
2.60319996 1 0000418Bx Rx d 8 0x8B 0x8C 0x8D 0x8E 0x8F 0x90 0x91 0x92
2.60369992 1 0000418Cx Rx d 8 0x8C 0x8D 0x8E 0x8F 0x90 0x91 0x92 0x93
2.60430002 1 0000418Dx Rx d 8 0x8D 0x8E 0x8F 0x90 0x91 0x92 0x93 0x94
2.60479999 1 0000418Ex Rx d 8 0x8E 0x8F 0x90 0x91 0x92 0x93 0x94 0x95
2.60529995 1 0000418Fx Rx d 8 0x8A 0x8B 0x8C 0x8D 0x8E 0x8F 0x90 0x91
2.60590005 1 00004190x Rx d 8 0x90 0x91 0x92 0x93 0x94 0x95 0x96 0x97
2.63019991 1 00004185x Rx d 8 0x85 0x86 0x87 0x88 0x89 0x8A 0x8B 0x8C
2.63070011 1 00004189x Rx d 8 0x89 0x8A 0x8B 0x8C 0x8D 0x8E 0x8F 0x90
2.63129997 1 0000418Ax Rx d 8 0x8A 0x8B 0x8C 0x8D 0x8E 0x8F 0x90 0x91
2.65540004 1 00004185x Rx d 8 0x85 0x86 0x87 0x88 0x89 0x8A 0x8B 0x8C
2.65590000 1 00004186x Rx d 8 0x86 0x87 0x88 0x89 0x8A 0x8B 0x8C 0x8D
2.65650010 1 00004187x Rx d 8 0x87 0x88 0x89 0x8A 0xD0 0x1C 0xC0 0x24
2.65700006 1 00004188x Rx d 8 0x88 0x89 0x8A 0x8B 0x8C 0x8D 0x8E 0x8F
2.65759993 1 00004189x Rx d 8 0x89 0x8A 0x8B 0x8C 0x8D 0x8E 0x8F 0x90
2.65809989 1 0000418Ax Rx d 8 0x8A 0x8B 0x8C 0x8D 0x8E 0x8F 0x90 0x91
2.65869999 1 0000418Bx Rx d 8 0x8B 0x8C 0x8D 0x8E 0x8F 0x90 0x91 0x92
2.65919995 1 0000418Cx Rx d 8 0x8C 0x8D 0x8E 0x8F 0x90 0x91 0x92 0x93
2.65980005 1 0000418Dx Rx d 8 0x8D 0x8E 0x8F 0x90 0x91 0x92 0x93 0x94
2.66030002 1 0000418Ex Rx d 8 0x8E 0x8F 0x90 0x91 0x92 0x93 0x94 0x95
2.66079998 1 0000418Fx Rx d 8 0x8A 0x8B 0x8C 0x8D 0x8E 0x8F 0x90 0x91
2.66140008 1 00004190x Rx d 8 0x90 0x91 0x92 0x93 0x94 0x95 0x96 0x97
2.68569994 1 00004185x Rx d 8 0x85 0x86 0x87 0x88 0x89 0x8A 0x8B 0x8C
2.68619990 1 00004189x Rx d 8 0x89 0x8A 0x8B 0x8C 0x8D 0x8E 0x8F 0x90
2.68670011 1 0000418Ax Rx d 8 0x8A 0x8B 0x8C 0x8D 0x8E 0x8F 0x90 0x91
2.71339989 1 00004185x Rx d 8 0x85 0x86 0x87 0x88 0x89 0x8A 0x8B 0x8C
2.71390009 1 00004186x Rx d 8 0x86 0x87 0x88 0x89 0x8A 0x8B 0x8C 0x8D
2.71449995 1 00004187x Rx d 8 0x87 0x88 0x89 0x8A 0xBC 0x1C 0xD4 0x24
2.71499991 1 00004188x Rx d 8 0x88 0x89 0x8A 0x8B 0x8C 0x8D 0x8E 0x8F
2.71560001 1 00004189x Rx d 8 0x89 0x8A 0x8B 0x8C 0x8D 0x8E 0x8F 0x90
2.71609998 1 0000418Ax Rx d 8 0x8A 0x8B 0x8C 0x8D 0x8E 0x8F 0x90 0x91
2.71670008 1 0000418Bx Rx d 8 0x8B 0x8C 0x8D 0x8E 0x8F 0x90 0x91 0x92
2.71720004 1 0000418Cx Rx d 8 0x8C 0x8D 0x8E 0x8F 0x90 0x91 0x92 0x93
2.71770000 1 0000418Dx Rx d 8 0x8D 0x8E 0x8F 0x90 0x91 0x92 0x93 0x94
2.71830010 1 0000418Ex Rx d 8 0x8E 0x8F 0x90 0x91 0x92 0x93 0x94 0x95
2.71880007 1 0000418Fx Rx d 8 0x8A 0x8B 0x8C 0x8D 0x8E 0x8F 0x90 0x91
2.71939993 1 00004190x Rx d 8 0x90 0x91 0x92 0x93 0x94 0x95 0x96 0x97
2.74869990 1 00004185x Rx d 8 0x85 0x86 0x87 0x88 0x89 0x8A 0x8B 0x8C
2.74920011 1 00004189x Rx d 8 0x89 0x8A 0x8B 0x8C 0x8D 0x8E 0x8F 0x90
2.74979997 1 0000418Ax Rx d 8 0x8A 0x8B 0x8C 0x8D 0x8E 0x8F 0x90 0x91
2.77640009 1 00004185x Rx d 8 0x85 0x86 0x87 0x88 0x89 0x8A 0x8B 0x8C
2.77699995 1 00004186x Rx d 8 0x86 0x87 0x88 0x89 0x8A 0x8B 0x8C 0x8D
2.77749991 1 00004187x Rx d 8 0x87 0x88 0x89 0x8A 0xA8 0x1C 0xE8 0x24
2.77810001 1 00004188x Rx d 8 0x88 0x89 0x8A 0x8B 0x8C 0x8D 0x8E 0x8F
2.77859998 1 00004189x Rx d 8 0x89 0x8A 0x8B 0x8C 0x8D 0x8E 0x8F 0x90
2.77920008 1 0000418Ax Rx d 8 0x8A 0x8B 0x8C 0x8D 0x8E 0x8F 0x90 0x91
2.77970004 1 0000418Bx Rx d 8 0x8B 0x8C 0x8D 0x8E 0x8F 0x90 0x91 0x92
2.78020000 1 0000418Cx Rx d 8 0x8C 0x8D 0x8E 0x8F 0x90 0x91 0x92 0x93
2.78080010 1 0000418Dx Rx d 8 0x8D 0x8E 0x8F 0x90 0x91 0x92 0x93 0x94
2.78130007 1 0000418Ex Rx d 8 0x8E 0x8F 0x90 0x91 0x92 0x93 0x94 0x95
2.78189993 1 0000418Fx Rx d 8 0x8A 0x8B 0x8C 0x8D 0x8E 0x8F 0x90 0x91
2.78239989 1 00004190x Rx d 8 0x90 0x91 0x92 0x93 0x94 0x95 0x96 0x97
2.80920005 1 00004185x Rx d 8 0x85 0x86 0x87 0x88 0x89 0x8A 0x8B 0x8C
2.80979991 1 00004189x Rx d 8 0x89 0x8A 0x8B 0x8C 0x8D 0x8E 0x8F 0x90
2.81030011 1 0000418Ax Rx d 8 0x8A 0x8B 0x8C 0x8D 0x8E 0x8F 0x90 0x91
2.83699989 1 00004185x Rx d 8 0x85 0x86 0x87 0x88 0x89 0x8A 0x8B 0x8C
2.83750010 1 00004186x Rx d 8 0x86 0x87 0x88 0x89 0x8A 0x8B 0x8C 0x8D
2.83800006 1 00004187x Rx d 8 0x87 0x88 0x89 0x8A 0x94 0x1C 0xFC 0x24
2.83859992 1 00004188x Rx d 8 0x88 0x89 0x8A 0x8B 0x8C 0x8D 0x8E 0x8F
2.83909988 1 00004189x Rx d 8 0x89 0x8A 0x8B 0x8C 0x8D 0x8E 0x8F 0x90
2.83969998 1 0000418Ax Rx d 8 0x8A 0x8B 0x8C 0x8D 0x8E 0x8F 0x90 0x91
2.84019995 1 0000418Bx Rx d 8 0x8B 0x8C 0x8D 0x8E 0x8F 0x90 0x91 0x92
2.84080005 1 0000418Cx Rx d 8 0x8C 0x8D 0x8E 0x8F 0x90 0x91 0x92 0x93
2.84130001 1 0000418Dx Rx d 8 0x8D 0x8E 0x8F 0x90 0x91 0x92 0x93 0x94
2.84179997 1 0000418Ex Rx d 8 0x8E 0x8F 0x90 0x91 0x92 0x93 0x94 0x95
2.84240007 1 0000418Fx Rx d 8 0x8A 0x8B 0x8C 0x8D 0x8E 0x8F 0x90 0x91
2.84290004 1 00004190x Rx d 8 0x90 0x91 0x92 0x93 0x94 0x95 0x96 0x97
2.86719990 1 00004185x Rx d 8 0x85 0x86 0x87 0x88 0x89 0x8A 0x8B 0x8C
2.86780000 1 00004189x Rx d 8 0x89 0x8A 0x8B 0x8C 0x8D 0x8E 0x8F 0x90
2.86829996 1 0000418Ax Rx d 8 0x8A 0x8B 0x8C 0x8D 0x8E 0x8F 0x90 0x91
2.89499998 1 00004185x Rx d 8 0x85 0x86 0x87 0x88 0x89 0x8A 0x8B 0x8C
2.89549994 1 00004186x Rx d 8 0x86 0x87 0x88 0x89 0x8A 0x8B 0x8C 0x8D
2.89599991 1 00004187x Rx d 8 0x87 0x88 0x89 0x8A 0x80 0x1C 0x10 0x25
2.89660001 1 00004188x Rx d 8 0x88 0x89 0x8A 0x8B 0x8C 0x8D 0x8E 0x8F
2.89709997 1 00004189x Rx d 8 0x89 0x8A 0x8B 0x8C 0x8D 0x8E 0x8F 0x90
2.89770007 1 0000418Ax Rx d 8 0x8A 0x8B 0x8C 0x8D 0x8E 0x8F 0x90 0x91
2.89820004 1 0000418Bx Rx d 8 0x8B 0x8C 0x8D 0x8E 0x8F 0x90 0x91 0x92
2.89879990 1 0000418Cx Rx d 8 0x8C 0x8D 0x8E 0x8F 0x90 0x91 0x92 0x93
2.89930010 1 0000418Dx Rx d 8 0x8D 0x8E 0x8F 0x90 0x91 0x92 0x93 0x94
2.89989996 1 0000418Ex Rx d 8 0x8E 0x8F 0x90 0x91 0x92 0x93 0x94 0x95
2.90039992 1 0000418Fx Rx d 8 0x8A 0x8B 0x8C 0x8D 0x8E 0x8F 0x90 0x91
2.90089989 1 00004190x Rx d 8 0x90 0x91 0x92 0x93 0x94 0x95 0x96 0x97
2.92519999 1 00004185x Rx d 8 0x85 0x86 0x87 0x88 0x89 0x8A 0x8B 0x8C
2.92580009 1 00004189x Rx d 8 0x89 0x8A 0x8B 0x8C 0x8D 0x8E 0x8F 0x90
2.92630005 1 0000418Ax Rx d 8 0x8A 0x8B 0x8C 0x8D 0x8E 0x8F 0x90 0x91
2.95300007 1 00004185x Rx d 8 0x85 0x86 0x87 0x88 0x89 0x8A 0x8B 0x8C
2.95350003 1 00004186x Rx d 8 0x86 0x87 0x88 0x89 0x8A 0x8B 0x8C 0x8D
2.95400000 1 00004187x Rx d 8 0x87 0x88 0x89 0x8A 0x6C 0x1C 0x24 0x25
2.95460010 1 00004188x Rx d 8 0x88 0x89 0x8A 0x8B 0x8C 0x8D 0x8E 0x8F
2.95510006 1 00004189x Rx d 8 0x89 0x8A 0x8B 0x8C 0x8D 0x8E 0x8F 0x90
2.95569992 1 0000418Ax Rx d 8 0x8A 0x8B 0x8C 0x8D 0x8E 0x8F 0x90 0x91
2.95619988 1 0000418Bx Rx d 8 0x8B 0x8C 0x8D 0x8E 0x8F 0x90 0x91 0x92
2.95670009 1 0000418Cx Rx d 8 0x8C 0x8D 0x8E 0x8F 0x90 0x91 0x92 0x93
2.95729995 1 0000418Dx Rx d 8 0x8D 0x8E 0x8F 0x90 0x91 0x92 0x93 0x94
2.95779991 1 0000418Ex Rx d 8 0x8E 0x8F 0x90 0x91 0x92 0x93 0x94 0x95
2.95840001 1 0000418Fx Rx d 8 0x8A 0x8B 0x8C 0x8D 0x8E 0x8F 0x90 0x91
2.95889997 1 00004190x Rx d 8 0x90 0x91 0x92 0x93 0x94 0x95 0x96 0x97
2.98320007 1 00004185x Rx d 8 0x85 0x86 0x87 0x88 0x89 0x8A 0x8B 0x8C
2.98379993 1 00004189x Rx d 8 0x89 0x8A 0x8B 0x8C 0x8D 0x8E 0x8F 0x90
2.98429990 1 0000418Ax Rx d 8 0x8A 0x8B 0x8C 0x8D 0x8E 0x8F 0x90 0x91
3.01099992 1 00004185x Rx d 8 0x85 0x86 0x87 0x88 0x89 0x8A 0x8B 0x8C
3.01149988 1 00004186x Rx d 8 0x86 0x87 0x88 0x89 0x8A 0x8B 0x8C 0x8D
3.01200008 1 00004187x Rx d 8 0x87 0x88 0x89 0x8A 0x58 0x1C 0x38 0x25
3.01259995 1 00004188x Rx d 8 0x88 0x89 0x8A 0x8B 0x8C 0x8D 0x8E 0x8F
3.01309991 1 00004189x Rx d 8 0x89 0x8A 0x8B 0x8C 0x8D 0x8E 0x8F 0x90
3.01370001 1 0000418Ax Rx d 8 0x8A 0x8B 0x8C 0x8D 0x8E 0x8F 0x90 0x91
3.01419997 1 0000418Bx Rx d 8 0x8B 0x8C 0x8D 0x8E 0x8F 0x90 0x91 0x92
3.01469994 1 0000418Cx Rx d 8 0x8C 0x8D 0x8E 0x8F 0x90 0x91 0x92 0x93
3.01530004 1 0000418Dx Rx d 8 0x8D 0x8E 0x8F 0x90 0x91 0x92 0x93 0x94
3.01580000 1 0000418Ex Rx d 8 0x8E 0x8F 0x90 0x91 0x92 0x93 0x94 0x95
3.01640010 1 0000418Fx Rx d 8 0x8A 0x8B 0x8C 0x8D 0x8E 0x8F 0x90 0x91
3.01690006 1 00004190x Rx d 8 0x90 0x91 0x92 0x93 0x94 0x95 0x96 0x97
3.04369998 1 00004185x Rx d 8 0x85 0x86 0x87 0x88 0x89 0x8A 0x8B 0x8C
3.04430008 1 00004189x Rx d 8 0x89 0x8A 0x8B 0x8C 0x8D 0x8E 0x8F 0x90
3.04480004 1 0000418Ax Rx d 8 0x8A 0x8B 0x8C 0x8D 0x8E 0x8F 0x90 0x91
3.08130002 1 00004185x Rx d 8 0x85 0x86 0x87 0x88 0x89 0x8A 0x8B 0x8C
3.08179998 1 00004186x Rx d 8 0x86 0x87 0x88 0x89 0x8A 0x8B 0x8C 0x8D
3.08229995 1 00004187x Rx d 8 0x87 0x88 0x89 0x8A 0x44 0x1C 0x4C 0x25
3.08290005 1 00004188x Rx d 8 0x88 0x89 0x8A 0x8B 0x8C 0x8D 0x8E 0x8F
3.08340001 1 00004189x Rx d 8 0x89 0x8A 0x8B 0x8C 0x8D 0x8E 0x8F 0x90
3.08400011 1 0000418Ax Rx d 8 0x8A 0x8B 0x8C 0x8D 0x8E 0x8F 0x90 0x91
3.08450007 1 0000418Bx Rx d 8 0x8B 0x8C 0x8D 0x8E 0x8F 0x90 0x91 0x92
3.08500004 1 0000418Cx Rx d 8 0x8C 0x8D 0x8E 0x8F 0x90 0x91 0x92 0x93
3.08559990 1 0000418Dx Rx d 8 0x8D 0x8E 0x8F 0x90 0x91 0x92 0x93 0x94
3.08610010 1 0000418Ex Rx d 8 0x8E 0x8F 0x90 0x91 0x92 0x93 0x94 0x95
3.08669996 1 0000418Fx Rx d 8 0x8A 0x8B 0x8C 0x8D 0x8E 0x8F 0x90 0x91
3.08719993 1 00004190x Rx d 8 0x90 0x91 0x92 0x93 0x94 0x95 0x96 0x97
3.11430001 1 00004185x Rx d 8 0x85 0x86 0x87 0x88 0x89 0x8A 0x8B 0x8C
3.11490011 1 00004189x Rx d 8 0x89 0x8A 0x8B 0x8C 0x8D 0x8E 0x8F 0x90
3.11540008 1 0000418Ax Rx d 8 0x8A 0x8B 0x8C 0x8D 0x8E 0x8F 0x90 0x91
3.14459991 1 00004185x Rx d 8 0x85 0x86 0x87 0x88 0x89 0x8A 0x8B 0x8C
3.14510012 1 00004186x Rx d 8 0x86 0x87 0x88 0x89 0x8A 0x8B 0x8C 0x8D
3.14569998 1 00004187x Rx d 8 0x87 0x88 0x89 0x8A 0x30 0x1C 0x60 0x25
3.14619994 1 00004188x Rx d 8 0x88 0x89 0x8A 0x8B 0x8C 0x8D 0x8E 0x8F
3.14680004 1 00004189x Rx d 8 0x89 0x8A 0x8B 0x8C 0x8D 0x8E 0x8F 0x90
3.14730000 1 0000418Ax Rx d 8 0x8A 0x8B 0x8C 0x8D 0x8E 0x8F 0x90 0x91
3.14790010 1 0000418Bx Rx d 8 0x8B 0x8C 0x8D 0x8E 0x8F 0x90 0x91 0x92
3.14840007 1 0000418Cx Rx d 8 0x8C 0x8D 0x8E 0x8F 0x90 0x91 0x92 0x93
3.14890003 1 0000418Dx Rx d 8 0x8D 0x8E 0x8F 0x90 0x91 0x92 0x93 0x94
3.14949989 1 0000418Ex Rx d 8 0x8E 0x8F 0x90 0x91 0x92 0x93 0x94 0x95
3.15000010 1 0000418Fx Rx d 8 0x8A 0x8B 0x8C 0x8D 0x8E 0x8F 0x90 0x91
3.15059996 1 00004190x Rx d 8 0x90 0x91 0x92 0x93 0x94 0x95 0x96 0x97
3.17740011 1 00004185x Rx d 8 0x85 0x86 0x87 0x88 0x89 0x8A 0x8B 0x8C
3.17790008 1 00004189x Rx d 8 0x89 0x8A 0x8B 0x8C 0x8D 0x8E 0x8F 0x90
3.17849994 1 0000418Ax Rx d 8 0x8A 0x8B 0x8C 0x8D 0x8E 0x8F 0x90 0x91
3.20510006 1 00004185x Rx d 8 0x85 0x86 0x87 0x88 0x89 0x8A 0x8B 0x8C
3.20569992 1 00004186x Rx d 8 0x86 0x87 0x88 0x89 0x8A 0x8B 0x8C 0x8D
3.20619988 1 00004187x Rx d 8 0x87 0x88 0x89 0x8A 0x1C 0x1C 0x74 0x25
3.20670009 1 00004188x Rx d 8 0x88 0x89 0x8A 0x8B 0x8C 0x8D 0x8E 0x8F
3.20729995 1 00004189x Rx d 8 0x89 0x8A 0x8B 0x8C 0x8D 0x8E 0x8F 0x90
3.20779991 1 0000418Ax Rx d 8 0x8A 0x8B 0x8C 0x8D 0x8E 0x8F 0x90 0x91
3.20840001 1 0000418Bx Rx d 8 0x8B 0x8C 0x8D 0x8E 0x8F 0x90 0x91 0x92
3.20889997 1 0000418Cx Rx d 8 0x8C 0x8D 0x8E 0x8F 0x90 0x91 0x92 0x93
3.20950007 1 0000418Dx Rx d 8 0x8D 0x8E 0x8F 0x90 0x91 0x92 0x93 0x94
3.21000004 1 0000418Ex Rx d 8 0x8E 0x8F 0x90 0x91 0x92 0x93 0x94 0x95
3.21050000 1 0000418Fx Rx d 8 0x8A 0x8B 0x8C 0x8D 0x8E 0x8F 0x90 0x91
3.21110010 1 00004190x Rx d 8 0x90 0x91 0x92 0x93 0x94 0x95 0x96 0x97
3.23539996 1 00004185x Rx d 8 0x85 0x86 0x87 0x88 0x89 0x8A 0x8B 0x8C
3.23589993 1 00004189x Rx d 8 0x89 0x8A 0x8B 0x8C 0x8D 0x8E 0x8F 0x90
3.23650002 1 0000418Ax Rx d 8 0x8A 0x8B 0x8C 0x8D 0x8E 0x8F 0x90 0x91
3.26309991 1 00004185x Rx d 8 0x85 0x86 0x87 0x88 0x89 0x8A 0x8B 0x8C
3.26360011 1 00004186x Rx d 8 0x86 0x87 0x88 0x89 0x8A 0x8B 0x8C 0x8D
3.26419997 1 00004187x Rx d 8 0x87 0x88 0x89 0x8A 0x08 0x1C 0x88 0x25
3.26469994 1 00004188x Rx d 8 0x88 0x89 0x8A 0x8B 0x8C 0x8D 0x8E 0x8F
3.26530004 1 00004189x Rx d 8 0x89 0x8A 0x8B 0x8C 0x8D 0x8E 0x8F 0x90
3.26580000 1 0000418Ax Rx d 8 0x8A 0x8B 0x8C 0x8D 0x8E 0x8F 0x90 0x91
3.26640010 1 0000418Bx Rx d 8 0x8B 0x8C 0x8D 0x8E 0x8F 0x90 0x91 0x92
3.26690006 1 0000418Cx Rx d 8 0x8C 0x8D 0x8E 0x8F 0x90 0x91 0x92 0x93
3.26749992 1 0000418Dx Rx d 8 0x8D 0x8E 0x8F 0x90 0x91 0x92 0x93 0x94
3.26799989 1 0000418Ex Rx d 8 0x8E 0x8F 0x90 0x91 0x92 0x93 0x94 0x95
3.26850009 1 0000418Fx Rx d 8 0x8A 0x8B 0x8C 0x8D 0x8E 0x8F 0x90 0x91
3.26909995 1 00004190x Rx d 8 0x90 0x91 0x92 0x93 0x94 0x95 0x96 0x97
3.29340005 1 00004185x Rx d 8 0x85 0x86 0x87 0x88 0x89 0x8A 0x8B 0x8C
3.29390001 1 00004189x Rx d 8 0x89 0x8A 0x8B 0x8C 0x8D 0x8E 0x8F 0x90
3.29450011 1 0000418Ax Rx d 8 0x8A 0x8B 0x8C 0x8D 0x8E 0x8F 0x90 0x91
3.32110000 1 00004185x Rx d 8 0x85 0x86 0x87 0x88 0x89 0x8A 0x8B 0x8C
3.32159996 1 00004186x Rx d 8 0x86 0x87 0x88 0x89 0x8A 0x8B 0x8C 0x8D
3.32220006 1 00004187x Rx d 8 0x87 0x88 0x89 0x8A 0xF4 0x1B 0x9C 0x25
3.32270002 1 00004188x Rx d 8 0x88 0x89 0x8A 0x8B 0x8C 0x8D 0x8E 0x8F
3.32329988 1 00004189x Rx d 8 0x89 0x8A 0x8B 0x8C 0x8D 0x8E 0x8F 0x90
3.32380009 1 0000418Ax Rx d 8 0x8A 0x8B 0x8C 0x8D 0x8E 0x8F 0x90 0x91
3.32439995 1 0000418Bx Rx d 8 0x8B 0x8C 0x8D 0x8E 0x8F 0x90 0x91 0x92
3.32489991 1 0000418Cx Rx d 8 0x8C 0x8D 0x8E 0x8F 0x90 0x91 0x92 0x93
3.32550001 1 0000418Dx Rx d 8 0x8D 0x8E 0x8F 0x90 0x91 0x92 0x93 0x94
3.32599998 1 0000418Ex Rx d 8 0x8E 0x8F 0x90 0x91 0x92 0x93 0x94 0x95
3.32649994 1 0000418Fx Rx d 8 0x8A 0x8B 0x8C 0x8D 0x8E 0x8F 0x90 0x91
3.32710004 1 00004190x Rx d 8 0x90 0x91 0x92 0x93 0x94 0x95 0x96 0x97
3.35389996 1 00004185x Rx d 8 0x85 0x86 0x87 0x88 0x89 0x8A 0x8B 0x8C
3.35439992 1 00004189x Rx d 8 0x89 0x8A 0x8B 0x8C 0x8D 0x8E 0x8F 0x90
3.35500002 1 0000418Ax Rx d 8 0x8A 0x8B 0x8C 0x8D 0x8E 0x8F 0x90 0x91
3.38420010 1 00004185x Rx d 8 0x85 0x86 0x87 0x88 0x89 0x8A 0x8B 0x8C
3.38470006 1 00004186x Rx d 8 0x86 0x87 0x88 0x89 0x8A 0x8B 0x8C 0x8D
3.38520002 1 00004187x Rx d 8 0x87 0x88 0x89 0x8A 0xE0 0x1B 0xB0 0x25
3.38579988 1 00004188x Rx d 8 0x88 0x89 0x8A 0x8B 0x8C 0x8D 0x8E 0x8F
3.38630009 1 00004189x Rx d 8 0x89 0x8A 0x8B 0x8C 0x8D 0x8E 0x8F 0x90
3.38689995 1 0000418Ax Rx d 8 0x8A 0x8B 0x8C 0x8D 0x8E 0x8F 0x90 0x91
3.38739991 1 0000418Bx Rx d 8 0x8B 0x8C 0x8D 0x8E 0x8F 0x90 0x91 0x92
3.38800001 1 0000418Cx Rx d 8 0x8C 0x8D 0x8E 0x8F 0x90 0x91 0x92 0x93
3.38849998 1 0000418Dx Rx d 8 0x8D 0x8E 0x8F 0x90 0x91 0x92 0x93 0x94
3.38899994 1 0000418Ex Rx d 8 0x8E 0x8F 0x90 0x91 0x92 0x93 0x94 0x95
3.38960004 1 0000418Fx Rx d 8 0x8A 0x8B 0x8C 0x8D 0x8E 0x8F 0x90 0x91
3.39010000 1 00004190x Rx d 8 0x90 0x91 0x92 0x93 0x94 0x95 0x96 0x97
3.41689992 1 00004185x Rx d 8 0x85 0x86 0x87 0x88 0x89 0x8A 0x8B 0x8C
3.41750002 1 00004189x Rx d 8 0x89 0x8A 0x8B 0x8C 0x8D 0x8E 0x8F 0x90
3.41799998 1 0000418Ax Rx d 8 0x8A 0x8B 0x8C 0x8D 0x8E 0x8F 0x90 0x91
3.44210005 1 00004185x Rx d 8 0x85 0x86 0x87 0x88 0x89 0x8A 0x8B 0x8C
3.44269991 1 00004186x Rx d 8 0x86 0x87 0x88 0x89 0x8A 0x8B 0x8C 0x8D
3.44320011 1 00004187x Rx d 8 0x87 0x88 0x89 0x8A 0xCC 0x1B 0xC4 0x25
3.44379997 1 00004188x Rx d 8 0x88 0x89 0x8A 0x8B 0x8C 0x8D 0x8E 0x8F
3.44429994 1 00004189x Rx d 8 0x89 0x8A 0x8B 0x8C 0x8D 0x8E 0x8F 0x90
3.44490004 1 0000418Ax Rx d 8 0x8A 0x8B 0x8C 0x8D 0x8E 0x8F 0x90 0x91
3.44540000 1 0000418Bx Rx d 8 0x8B 0x8C 0x8D 0x8E 0x8F 0x90 0x91 0x92
3.44589996 1 0000418Cx Rx d 8 0x8C 0x8D 0x8E 0x8F 0x90 0x91 0x92 0x93
3.44650006 1 0000418Dx Rx d 8 0x8D 0x8E 0x8F 0x90 0x91 0x92 0x93 0x94
3.44700003 1 0000418Ex Rx d 8 0x8E 0x8F 0x90 0x91 0x92 0x93 0x94 0x95
3.44759989 1 0000418Fx Rx d 8 0x8A 0x8B 0x8C 0x8D 0x8E 0x8F 0x90 0x91
3.44810009 1 00004190x Rx d 8 0x90 0x91 0x92 0x93 0x94 0x95 0x96 0x97
3.47490001 1 00004185x Rx d 8 0x85 0x86 0x87 0x88 0x89 0x8A 0x8B 0x8C
3.47550011 1 00004189x Rx d 8 0x89 0x8A 0x8B 0x8C 0x8D 0x8E 0x8F 0x90
3.47600007 1 0000418Ax Rx d 8 0x8A 0x8B 0x8C 0x8D 0x8E 0x8F 0x90 0x91
3.50519991 1 00004185x Rx d 8 0x85 0x86 0x87 0x88 0x89 0x8A 0x8B 0x8C
3.50570011 1 00004186x Rx d 8 0x86 0x87 0x88 0x89 0x8A 0x8B 0x8C 0x8D
3.50629997 1 00004187x Rx d 8 0x87 0x88 0x89 0x8A 0xB8 0x1B 0xD8 0x25
3.50679994 1 00004188x Rx d 8 0x88 0x89 0x8A 0x8B 0x8C 0x8D 0x8E 0x8F
3.50740004 1 00004189x Rx d 8 0x89 0x8A 0x8B 0x8C 0x8D 0x8E 0x8F 0x90
3.50790000 1 0000418Ax Rx d 8 0x8A 0x8B 0x8C 0x8D 0x8E 0x8F 0x90 0x91
3.50839996 1 0000418Bx Rx d 8 0x8B 0x8C 0x8D 0x8E 0x8F 0x90 0x91 0x92
3.50900006 1 0000418Cx Rx d 8 0x8C 0x8D 0x8E 0x8F 0x90 0x91 0x92 0x93
3.50950003 1 0000418Dx Rx d 8 0x8D 0x8E 0x8F 0x90 0x91 0x92 0x93 0x94
3.51009989 1 0000418Ex Rx d 8 0x8E 0x8F 0x90 0x91 0x92 0x93 0x94 0x95
3.51060009 1 0000418Fx Rx d 8 0x8A 0x8B 0x8C 0x8D 0x8E 0x8F 0x90 0x91
3.51119995 1 00004190x Rx d 8 0x90 0x91 0x92 0x93 0x94 0x95 0x96 0x97
3.54299998 1 00004185x Rx d 8 0x85 0x86 0x87 0x88 0x89 0x8A 0x8B 0x8C
3.54360008 1 00004189x Rx d 8 0x89 0x8A 0x8B 0x8C 0x8D 0x8E 0x8F 0x90
3.54410005 1 0000418Ax Rx d 8 0x8A 0x8B 0x8C 0x8D 0x8E 0x8F 0x90 0x91
3.56820011 1 00004185x Rx d 8 0x85 0x86 0x87 0x88 0x89 0x8A 0x8B 0x8C
3.56879997 1 00004186x Rx d 8 0x86 0x87 0x88 0x89 0x8A 0x8B 0x8C 0x8D
3.56929994 1 00004187x Rx d 8 0x87 0x88 0x89 0x8A 0xA4 0x1B 0xEC 0x25
3.56990004 1 00004188x Rx d 8 0x88 0x89 0x8A 0x8B 0x8C 0x8D 0x8E 0x8F
3.57040000 1 00004189x Rx d 8 0x89 0x8A 0x8B 0x8C 0x8D 0x8E 0x8F 0x90
3.57100010 1 0000418Ax Rx d 8 0x8A 0x8B 0x8C 0x8D 0x8E 0x8F 0x90 0x91
3.57150006 1 0000418Bx Rx d 8 0x8B 0x8C 0x8D 0x8E 0x8F 0x90 0x91 0x92
3.57200003 1 0000418Cx Rx d 8 0x8C 0x8D 0x8E 0x8F 0x90 0x91 0x92 0x93
3.57259989 1 0000418Dx Rx d 8 0x8D 0x8E 0x8F 0x90 0x91 0x92 0x93 0x94
3.57310009 1 0000418Ex Rx d 8 0x8E 0x8F 0x90 0x91 0x92 0x93 0x94 0x95
3.57369995 1 0000418Fx Rx d 8 0x8A 0x8B 0x8C 0x8D 0x8E 0x8F 0x90 0x91
3.57419991 1 00004190x Rx d 8 0x90 0x91 0x92 0x93 0x94 0x95 0x96 0x97
3.60870004 1 00004185x Rx d 8 0x85 0x86 0x87 0x88 0x89 0x8A 0x8B 0x8C
3.60920000 1 00004189x Rx d 8 0x89 0x8A 0x8B 0x8C 0x8D 0x8E 0x8F 0x90
3.60980010 1 0000418Ax Rx d 8 0x8A 0x8B 0x8C 0x8D 0x8E 0x8F 0x90 0x91
3.63890004 1 00004185x Rx d 8 0x85 0x86 0x87 0x88 0x89 0x8A 0x8B 0x8C
3.63949990 1 00004186x Rx d 8 0x86 0x87 0x88 0x89 0x8A 0x8B 0x8C 0x8D
3.64000010 1 00004187x Rx d 8 0x87 0x88 0x89 0x8A 0x90 0x1B 0x00 0x26
3.64059997 1 00004188x Rx d 8 0x88 0x89 0x8A 0x8B 0x8C 0x8D 0x8E 0x8F
3.64109993 1 00004189x Rx d 8 0x89 0x8A 0x8B 0x8C 0x8D 0x8E 0x8F 0x90
3.64170003 1 0000418Ax Rx d 8 0x8A 0x8B 0x8C 0x8D 0x8E 0x8F 0x90 0x91
3.64219999 1 0000418Bx Rx d 8 0x8B 0x8C 0x8D 0x8E 0x8F 0x90 0x91 0x92
3.64269996 1 0000418Cx Rx d 8 0x8C 0x8D 0x8E 0x8F 0x90 0x91 0x92 0x93
3.64330006 1 0000418Dx Rx d 8 0x8D 0x8E 0x8F 0x90 0x91 0x92 0x93 0x94
3.64380002 1 0000418Ex Rx d 8 0x8E 0x8F 0x90 0x91 0x92 0x93 0x94 0x95
3.64439988 1 0000418Fx Rx d 8 0x8A 0x8B 0x8C 0x8D 0x8E 0x8F 0x90 0x91
3.64490008 1 00004190x Rx d 8 0x90 0x91 0x92 0x93 0x94 0x95 0x96 0x97
3.66919994 1 00004185x Rx d 8 0x85 0x86 0x87 0x88 0x89 0x8A 0x8B 0x8C
3.66969991 1 00004189x Rx d 8 0x89 0x8A 0x8B 0x8C 0x8D 0x8E 0x8F 0x90
3.67030001 1 0000418Ax Rx d 8 0x8A 0x8B 0x8C 0x8D 0x8E 0x8F 0x90 0x91
3.69950008 1 00004185x Rx d 8 0x85 0x86 0x87 0x88 0x89 0x8A 0x8B 0x8C
3.70000005 1 00004186x Rx d 8 0x86 0x87 0x88 0x89 0x8A 0x8B 0x8C 0x8D
3.70050001 1 00004187x Rx d 8 0x87 0x88 0x89 0x8A 0x7C 0x1B 0x14 0x26
3.70110011 1 00004188x Rx d 8 0x88 0x89 0x8A 0x8B 0x8C 0x8D 0x8E 0x8F
3.70160007 1 00004189x Rx d 8 0x89 0x8A 0x8B 0x8C 0x8D 0x8E 0x8F 0x90
3.70219994 1 0000418Ax Rx d 8 0x8A 0x8B 0x8C 0x8D 0x8E 0x8F 0x90 0x91
3.70269990 1 0000418Bx Rx d 8 0x8B 0x8C 0x8D 0x8E 0x8F 0x90 0x91 0x92
3.70330000 1 0000418Cx Rx d 8 0x8C 0x8D 0x8E 0x8F 0x90 0x91 0x92 0x93
3.70379996 1 0000418Dx Rx d 8 0x8D 0x8E 0x8F 0x90 0x91 0x92 0x93 0x94
3.70429993 1 0000418Ex Rx d 8 0x8E 0x8F 0x90 0x91 0x92 0x93 0x94 0x95
3.70490003 1 0000418Fx Rx d 8 0x8A 0x8B 0x8C 0x8D 0x8E 0x8F 0x90 0x91
3.70539999 1 00004190x Rx d 8 0x90 0x91 0x92 0x93 0x94 0x95 0x96 0x97
3.72970009 1 00004185x Rx d 8 0x85 0x86 0x87 0x88 0x89 0x8A 0x8B 0x8C
3.73029995 1 00004189x Rx d 8 0x89 0x8A 0x8B 0x8C 0x8D 0x8E 0x8F 0x90
3.73079991 1 0000418Ax Rx d 8 0x8A 0x8B 0x8C 0x8D 0x8E 0x8F 0x90 0x91
3.75489998 1 00004185x Rx d 8 0x85 0x86 0x87 0x88 0x89 0x8A 0x8B 0x8C
3.75550008 1 00004186x Rx d 8 0x86 0x87 0x88 0x89 0x8A 0x8B 0x8C 0x8D
3.75600004 1 00004187x Rx d 8 0x87 0x88 0x89 0x8A 0x68 0x1B 0x28 0x26
3.75659990 1 00004188x Rx d 8 0x88 0x89 0x8A 0x8B 0x8C 0x8D 0x8E 0x8F
3.75710011 1 00004189x Rx d 8 0x89 0x8A 0x8B 0x8C 0x8D 0x8E 0x8F 0x90
3.75760007 1 0000418Ax Rx d 8 0x8A 0x8B 0x8C 0x8D 0x8E 0x8F 0x90 0x91
3.75819993 1 0000418Bx Rx d 8 0x8B 0x8C 0x8D 0x8E 0x8F 0x90 0x91 0x92
3.75869989 1 0000418Cx Rx d 8 0x8C 0x8D 0x8E 0x8F 0x90 0x91 0x92 0x93
3.75929999 1 0000418Dx Rx d 8 0x8D 0x8E 0x8F 0x90 0x91 0x92 0x93 0x94
3.75979996 1 0000418Ex Rx d 8 0x8E 0x8F 0x90 0x91 0x92 0x93 0x94 0x95
3.76040006 1 0000418Fx Rx d 8 0x8A 0x8B 0x8C 0x8D 0x8E 0x8F 0x90 0x91
3.76090002 1 00004190x Rx d 8 0x90 0x91 0x92 0x93 0x94 0x95 0x96 0x97
3.78520012 1 00004185x Rx d 8 0x85 0x86 0x87 0x88 0x89 0x8A 0x8B 0x8C
3.78570008 1 00004189x Rx d 8 0x89 0x8A 0x8B 0x8C 0x8D 0x8E 0x8F 0x90
3.78629994 1 0000418Ax Rx d 8 0x8A 0x8B 0x8C 0x8D 0x8E 0x8F 0x90 0x91
3.81290007 1 00004185x Rx d 8 0x85 0x86 0x87 0x88 0x89 0x8A 0x8B 0x8C
3.81349993 1 00004186x Rx d 8 0x86 0x87 0x88 0x89 0x8A 0x8B 0x8C 0x8D
3.81399989 1 00004187x Rx d 8 0x87 0x88 0x89 0x8A 0x54 0x1B 0x3C 0x26
3.81450009 1 00004188x Rx d 8 0x88 0x89 0x8A 0x8B 0x8C 0x8D 0x8E 0x8F
3.81509995 1 00004189x Rx d 8 0x89 0x8A 0x8B 0x8C 0x8D 0x8E 0x8F 0x90
3.81559992 1 0000418Ax Rx d 8 0x8A 0x8B 0x8C 0x8D 0x8E 0x8F 0x90 0x91
3.81620002 1 0000418Bx Rx d 8 0x8B 0x8C 0x8D 0x8E 0x8F 0x90 0x91 0x92
3.81669998 1 0000418Cx Rx d 8 0x8C 0x8D 0x8E 0x8F 0x90 0x91 0x92 0x93
3.81730008 1 0000418Dx Rx d 8 0x8D 0x8E 0x8F 0x90 0x91 0x92 0x93 0x94
3.81780005 1 0000418Ex Rx d 8 0x8E 0x8F 0x90 0x91 0x92 0x93 0x94 0x95
3.81839991 1 0000418Fx Rx d 8 0x8A 0x8B 0x8C 0x8D 0x8E 0x8F 0x90 0x91
3.81890011 1 00004190x Rx d 8 0x90 0x91 0x92 0x93 0x94 0x95 0x96 0x97
3.84319997 1 00004185x Rx d 8 0x85 0x86 0x87 0x88 0x89 0x8A 0x8B 0x8C
3.84369993 1 00004189x Rx d 8 0x89 0x8A 0x8B 0x8C 0x8D 0x8E 0x8F 0x90
3.84430003 1 0000418Ax Rx d 8 0x8A 0x8B 0x8C 0x8D 0x8E 0x8F 0x90 0x91
3.87089992 1 00004185x Rx d 8 0x85 0x86 0x87 0x88 0x89 0x8A 0x8B 0x8C
3.87150002 1 00004186x Rx d 8 0x86 0x87 0x88 0x89 0x8A 0x8B 0x8C 0x8D
3.87199998 1 00004187x Rx d 8 0x87 0x88 0x89 0x8A 0x40 0x1B 0x50 0x26
3.87260008 1 00004188x Rx d 8 0x88 0x89 0x8A 0x8B 0x8C 0x8D 0x8E 0x8F
3.87310004 1 00004189x Rx d 8 0x89 0x8A 0x8B 0x8C 0x8D 0x8E 0x8F 0x90
3.87360001 1 0000418Ax Rx d 8 0x8A 0x8B 0x8C 0x8D 0x8E 0x8F 0x90 0x91
3.87420011 1 0000418Bx Rx d 8 0x8B 0x8C 0x8D 0x8E 0x8F 0x90 0x91 0x92
3.87470007 1 0000418Cx Rx d 8 0x8C 0x8D 0x8E 0x8F 0x90 0x91 0x92 0x93
3.87529993 1 0000418Dx Rx d 8 0x8D 0x8E 0x8F 0x90 0x91 0x92 0x93 0x94
3.87579989 1 0000418Ex Rx d 8 0x8E 0x8F 0x90 0x91 0x92 0x93 0x94 0x95
3.87639999 1 0000418Fx Rx d 8 0x8A 0x8B 0x8C 0x8D 0x8E 0x8F 0x90 0x91
3.87689996 1 00004190x Rx d 8 0x90 0x91 0x92 0x93 0x94 0x95 0x96 0x97
3.90120006 1 00004185x Rx d 8 0x85 0x86 0x87 0x88 0x89 0x8A 0x8B 0x8C
3.90170002 1 00004189x Rx d 8 0x89 0x8A 0x8B 0x8C 0x8D 0x8E 0x8F 0x90
3.90229988 1 0000418Ax Rx d 8 0x8A 0x8B 0x8C 0x8D 0x8E 0x8F 0x90 0x91
3.92890000 1 00004185x Rx d 8 0x85 0x86 0x87 0x88 0x89 0x8A 0x8B 0x8C
3.92950010 1 00004186x Rx d 8 0x86 0x87 0x88 0x89 0x8A 0x8B 0x8C 0x8D
3.93000007 1 00004187x Rx d 8 0x87 0x88 0x89 0x8A 0x2C 0x1B 0x64 0x26
3.93050003 1 00004188x Rx d 8 0x88 0x89 0x8A 0x8B 0x8C 0x8D 0x8E 0x8F
3.93109989 1 00004189x Rx d 8 0x89 0x8A 0x8B 0x8C 0x8D 0x8E 0x8F 0x90
3.93160009 1 0000418Ax Rx d 8 0x8A 0x8B 0x8C 0x8D 0x8E 0x8F 0x90 0x91
3.93219995 1 0000418Bx Rx d 8 0x8B 0x8C 0x8D 0x8E 0x8F 0x90 0x91 0x92
3.93269992 1 0000418Cx Rx d 8 0x8C 0x8D 0x8E 0x8F 0x90 0x91 0x92 0x93
3.93330002 1 0000418Dx Rx d 8 0x8D 0x8E 0x8F 0x90 0x91 0x92 0x93 0x94
3.93379998 1 0000418Ex Rx d 8 0x8E 0x8F 0x90 0x91 0x92 0x93 0x94 0x95
3.93429995 1 0000418Fx Rx d 8 0x8A 0x8B 0x8C 0x8D 0x8E 0x8F 0x90 0x91
3.93490005 1 00004190x Rx d 8 0x90 0x91 0x92 0x93 0x94 0x95 0x96 0x97
3.95919991 1 00004185x Rx d 8 0x85 0x86 0x87 0x88 0x89 0x8A 0x8B 0x8C
3.95970011 1 00004189x Rx d 8 0x89 0x8A 0x8B 0x8C 0x8D 0x8E 0x8F 0x90
3.96029997 1 0000418Ax Rx d 8 0x8A 0x8B 0x8C 0x8D 0x8E 0x8F 0x90 0x91
3.98440003 1 00004185x Rx d 8 0x85 0x86 0x87 0x88 0x89 0x8A 0x8B 0x8C
3.98490000 1 00004186x Rx d 8 0x86 0x87 0x88 0x89 0x8A 0x8B 0x8C 0x8D
3.98550010 1 00004187x Rx d 8 0x87 0x88 0x89 0x8A 0x18 0x1B 0x78 0x26
3.98600006 1 00004188x Rx d 8 0x88 0x89 0x8A 0x8B 0x8C 0x8D 0x8E 0x8F
3.98659992 1 00004189x Rx d 8 0x89 0x8A 0x8B 0x8C 0x8D 0x8E 0x8F 0x90
3.98709989 1 0000418Ax Rx d 8 0x8A 0x8B 0x8C 0x8D 0x8E 0x8F 0x90 0x91
3.98769999 1 0000418Bx Rx d 8 0x8B 0x8C 0x8D 0x8E 0x8F 0x90 0x91 0x92
3.98819995 1 0000418Cx Rx d 8 0x8C 0x8D 0x8E 0x8F 0x90 0x91 0x92 0x93
3.98869991 1 0000418Dx Rx d 8 0x8D 0x8E 0x8F 0x90 0x91 0x92 0x93 0x94
3.98930001 1 0000418Ex Rx d 8 0x8E 0x8F 0x90 0x91 0x92 0x93 0x94 0x95
3.98979998 1 0000418Fx Rx d 8 0x8A 0x8B 0x8C 0x8D 0x8E 0x8F 0x90 0x91
3.99040008 1 00004190x Rx d 8 0x90 0x91 0x92 0x93 0x94 0x95 0x96 0x97
4.01469994 1 00004185x Rx d 8 0x85 0x86 0x87 0x88 0x89 0x8A 0x8B 0x8C
4.01520014 1 00004189x Rx d 8 0x89 0x8A 0x8B 0x8C 0x8D 0x8E 0x8F 0x90
4.01580000 1 0000418Ax Rx d 8 0x8A 0x8B 0x8C 0x8D 0x8E 0x8F 0x90 0x91
4.04489994 1 00004185x Rx d 8 0x85 0x86 0x87 0x88 0x89 0x8A 0x8B 0x8C
4.04549980 1 00004186x Rx d 8 0x86 0x87 0x88 0x89 0x8A 0x8B 0x8C 0x8D
4.04600000 1 00004187x Rx d 8 0x87 0x88 0x89 0x8A 0x04 0x1B 0x8C 0x26
4.04650021 1 00004188x Rx d 8 0x88 0x89 0x8A 0x8B 0x8C 0x8D 0x8E 0x8F
4.04710007 1 00004189x Rx d 8 0x89 0x8A 0x8B 0x8C 0x8D 0x8E 0x8F 0x90
4.04759979 1 0000418Ax Rx d 8 0x8A 0x8B 0x8C 0x8D 0x8E 0x8F 0x90 0x91
4.04820013 1 0000418Bx Rx d 8 0x8B 0x8C 0x8D 0x8E 0x8F 0x90 0x91 0x92
4.04869986 1 0000418Cx Rx d 8 0x8C 0x8D 0x8E 0x8F 0x90 0x91 0x92 0x93
4.04930019 1 0000418Dx Rx d 8 0x8D 0x8E 0x8F 0x90 0x91 0x92 0x93 0x94
4.04979992 1 0000418Ex Rx d 8 0x8E 0x8F 0x90 0x91 0x92 0x93 0x94 0x95
4.05030012 1 0000418Fx Rx d 8 0x8A 0x8B 0x8C 0x8D 0x8E 0x8F 0x90 0x91
4.05089998 1 00004190x Rx d 8 0x90 0x91 0x92 0x93 0x94 0x95 0x96 0x97
4.07520008 1 00004185x Rx d 8 0x85 0x86 0x87 0x88 0x89 0x8A 0x8B 0x8C
4.07569981 1 00004189x Rx d 8 0x89 0x8A 0x8B 0x8C 0x8D 0x8E 0x8F 0x90
4.07630014 1 0000418Ax Rx d 8 0x8A 0x8B 0x8C 0x8D 0x8E 0x8F 0x90 0x91
4.10799980 1 00004185x Rx d 8 0x85 0x86 0x87 0x88 0x89 0x8A 0x8B 0x8C
4.10850000 1 00004186x Rx d 8 0x86 0x87 0x88 0x89 0x8A 0x8B 0x8C 0x8D
4.10900021 1 00004187x Rx d 8 0x87 0x88 0x89 0x8A 0xF0 0x1A 0xA0 0x26
4.10960007 1 00004188x Rx d 8 0x88 0x89 0x8A 0x8B 0x8C 0x8D 0x8E 0x8F
4.11009979 1 00004189x Rx d 8 0x89 0x8A 0x8B 0x8C 0x8D 0x8E 0x8F 0x90
4.11070013 1 0000418Ax Rx d 8 0x8A 0x8B 0x8C 0x8D 0x8E 0x8F 0x90 0x91
4.11119986 1 0000418Bx Rx d 8 0x8B 0x8C 0x8D 0x8E 0x8F 0x90 0x91 0x92
4.11180019 1 0000418Cx Rx d 8 0x8C 0x8D 0x8E 0x8F 0x90 0x91 0x92 0x93
4.11229992 1 0000418Dx Rx d 8 0x8D 0x8E 0x8F 0x90 0x91 0x92 0x93 0x94
4.11280012 1 0000418Ex Rx d 8 0x8E 0x8F 0x90 0x91 0x92 0x93 0x94 0x95
4.11339998 1 0000418Fx Rx d 8 0x8A 0x8B 0x8C 0x8D 0x8E 0x8F 0x90 0x91
4.11390018 1 00004190x Rx d 8 0x90 0x91 0x92 0x93 0x94 0x95 0x96 0x97
4.14069986 1 00004185x Rx d 8 0x85 0x86 0x87 0x88 0x89 0x8A 0x8B 0x8C
4.14130020 1 00004189x Rx d 8 0x89 0x8A 0x8B 0x8C 0x8D 0x8E 0x8F 0x90
4.14179993 1 0000418Ax Rx d 8 0x8A 0x8B 0x8C 0x8D 0x8E 0x8F 0x90 0x91
4.16849995 1 00004185x Rx d 8 0x85 0x86 0x87 0x88 0x89 0x8A 0x8B 0x8C
4.16900015 1 00004186x Rx d 8 0x86 0x87 0x88 0x89 0x8A 0x8B 0x8C 0x8D
4.16960001 1 00004187x Rx d 8 0x87 0x88 0x89 0x8A 0xDC 0x1A 0xB4 0x26
4.17010021 1 00004188x Rx d 8 0x88 0x89 0x8A 0x8B 0x8C 0x8D 0x8E 0x8F
4.17059994 1 00004189x Rx d 8 0x89 0x8A 0x8B 0x8C 0x8D 0x8E 0x8F 0x90
4.17119980 1 0000418Ax Rx d 8 0x8A 0x8B 0x8C 0x8D 0x8E 0x8F 0x90 0x91
4.17170000 1 0000418Bx Rx d 8 0x8B 0x8C 0x8D 0x8E 0x8F 0x90 0x91 0x92
4.17229986 1 0000418Cx Rx d 8 0x8C 0x8D 0x8E 0x8F 0x90 0x91 0x92 0x93
4.17280006 1 0000418Dx Rx d 8 0x8D 0x8E 0x8F 0x90 0x91 0x92 0x93 0x94
4.17339993 1 0000418Ex Rx d 8 0x8E 0x8F 0x90 0x91 0x92 0x93 0x94 0x95
4.17390013 1 0000418Fx Rx d 8 0x8A 0x8B 0x8C 0x8D 0x8E 0x8F 0x90 0x91
4.17439985 1 00004190x Rx d 8 0x90 0x91 0x92 0x93 0x94 0x95 0x96 0x97
4.19869995 1 00004185x Rx d 8 0x85 0x86 0x87 0x88 0x89 0x8A 0x8B 0x8C
4.19929981 1 00004189x Rx d 8 0x89 0x8A 0x8B 0x8C 0x8D 0x8E 0x8F 0x90
4.19980001 1 0000418Ax Rx d 8 0x8A 0x8B 0x8C 0x8D 0x8E 0x8F 0x90 0x91
4.22650003 1 00004185x Rx d 8 0x85 0x86 0x87 0x88 0x89 0x8A 0x8B 0x8C
4.22700024 1 00004186x Rx d 8 0x86 0x87 0x88 0x89 0x8A 0x8B 0x8C 0x8D
4.22760010 1 00004187x Rx d 8 0x87 0x88 0x89 0x8A 0xC8 0x1A 0xC8 0x26
4.22809982 1 00004188x Rx d 8 0x88 0x89 0x8A 0x8B 0x8C 0x8D 0x8E 0x8F
4.22860003 1 00004189x Rx d 8 0x89 0x8A 0x8B 0x8C 0x8D 0x8E 0x8F 0x90
4.22919989 1 0000418Ax Rx d 8 0x8A 0x8B 0x8C 0x8D 0x8E 0x8F 0x90 0x91
4.22970009 1 0000418Bx Rx d 8 0x8B 0x8C 0x8D 0x8E 0x8F 0x90 0x91 0x92
4.23029995 1 0000418Cx Rx d 8 0x8C 0x8D 0x8E 0x8F 0x90 0x91 0x92 0x93
4.23080015 1 0000418Dx Rx d 8 0x8D 0x8E 0x8F 0x90 0x91 0x92 0x93 0x94
4.23140001 1 0000418Ex Rx d 8 0x8E 0x8F 0x90 0x91 0x92 0x93 0x94 0x95
4.23190022 1 0000418Fx Rx d 8 0x8A 0x8B 0x8C 0x8D 0x8E 0x8F 0x90 0x91
4.23239994 1 00004190x Rx d 8 0x90 0x91 0x92 0x93 0x94 0x95 0x96 0x97
4.25930023 1 00004185x Rx d 8 0x85 0x86 0x87 0x88 0x89 0x8A 0x8B 0x8C
4.25979996 1 00004189x Rx d 8 0x89 0x8A 0x8B 0x8C 0x8D 0x8E 0x8F 0x90
4.26039982 1 0000418Ax Rx d 8 0x8A 0x8B 0x8C 0x8D 0x8E 0x8F 0x90 0x91
4.28700018 1 00004185x Rx d 8 0x85 0x86 0x87 0x88 0x89 0x8A 0x8B 0x8C
4.28749990 1 00004186x Rx d 8 0x86 0x87 0x88 0x89 0x8A 0x8B 0x8C 0x8D
4.28809977 1 00004187x Rx d 8 0x87 0x88 0x89 0x8A 0xB4 0x1A 0xDC 0x26
4.28859997 1 00004188x Rx d 8 0x88 0x89 0x8A 0x8B 0x8C 0x8D 0x8E 0x8F
4.28919983 1 00004189x Rx d 8 0x89 0x8A 0x8B 0x8C 0x8D 0x8E 0x8F 0x90
4.28970003 1 0000418Ax Rx d 8 0x8A 0x8B 0x8C 0x8D 0x8E 0x8F 0x90 0x91
4.29029989 1 0000418Bx Rx d 8 0x8B 0x8C 0x8D 0x8E 0x8F 0x90 0x91 0x92
4.29080009 1 0000418Cx Rx d 8 0x8C 0x8D 0x8E 0x8F 0x90 0x91 0x92 0x93
4.29129982 1 0000418Dx Rx d 8 0x8D 0x8E 0x8F 0x90 0x91 0x92 0x93 0x94
4.29190016 1 0000418Ex Rx d 8 0x8E 0x8F 0x90 0x91 0x92 0x93 0x94 0x95
4.29239988 1 0000418Fx Rx d 8 0x8A 0x8B 0x8C 0x8D 0x8E 0x8F 0x90 0x91
4.29300022 1 00004190x Rx d 8 0x90 0x91 0x92 0x93 0x94 0x95 0x96 0x97
4.32229996 1 00004185x Rx d 8 0x85 0x86 0x87 0x88 0x89 0x8A 0x8B 0x8C
4.32280016 1 00004189x Rx d 8 0x89 0x8A 0x8B 0x8C 0x8D 0x8E 0x8F 0x90
4.32340002 1 0000418Ax Rx d 8 0x8A 0x8B 0x8C 0x8D 0x8E 0x8F 0x90 0x91
4.34999990 1 00004185x Rx d 8 0x85 0x86 0x87 0x88 0x89 0x8A 0x8B 0x8C
4.35059977 1 00004186x Rx d 8 0x86 0x87 0x88 0x89 0x8A 0x8B 0x8C 0x8D
4.35109997 1 00004187x Rx d 8 0x87 0x88 0x89 0x8A 0xA0 0x1A 0xF0 0x26
4.35169983 1 00004188x Rx d 8 0x88 0x89 0x8A 0x8B 0x8C 0x8D 0x8E 0x8F
4.35220003 1 00004189x Rx d 8 0x89 0x8A 0x8B 0x8C 0x8D 0x8E 0x8F 0x90
4.35279989 1 0000418Ax Rx d 8 0x8A 0x8B 0x8C 0x8D 0x8E 0x8F 0x90 0x91
4.35330009 1 0000418Bx Rx d 8 0x8B 0x8C 0x8D 0x8E 0x8F 0x90 0x91 0x92
4.35379982 1 0000418Cx Rx d 8 0x8C 0x8D 0x8E 0x8F 0x90 0x91 0x92 0x93
4.35440016 1 0000418Dx Rx d 8 0x8D 0x8E 0x8F 0x90 0x91 0x92 0x93 0x94
4.35489988 1 0000418Ex Rx d 8 0x8E 0x8F 0x90 0x91 0x92 0x93 0x94 0x95
4.35550022 1 0000418Fx Rx d 8 0x8A 0x8B 0x8C 0x8D 0x8E 0x8F 0x90 0x91
4.35599995 1 00004190x Rx d 8 0x90 0x91 0x92 0x93 0x94 0x95 0x96 0x97
4.38530016 1 00004185x Rx d 8 0x85 0x86 0x87 0x88 0x89 0x8A 0x8B 0x8C
4.38590002 1 00004189x Rx d 8 0x89 0x8A 0x8B 0x8C 0x8D 0x8E 0x8F 0x90
4.38640022 1 0000418Ax Rx d 8 0x8A 0x8B 0x8C 0x8D 0x8E 0x8F 0x90 0x91
4.41060019 1 00004185x Rx d 8 0x85 0x86 0x87 0x88 0x89 0x8A 0x8B 0x8C
4.41109991 1 00004186x Rx d 8 0x86 0x87 0x88 0x89 0x8A 0x8B 0x8C 0x8D
4.41160011 1 00004187x Rx d 8 0x87 0x88 0x89 0x8A 0x8C 0x1A 0x04 0x27
4.41219997 1 00004188x Rx d 8 0x88 0x89 0x8A 0x8B 0x8C 0x8D 0x8E 0x8F
4.41270018 1 00004189x Rx d 8 0x89 0x8A 0x8B 0x8C 0x8D 0x8E 0x8F 0x90
4.41330004 1 0000418Ax Rx d 8 0x8A 0x8B 0x8C 0x8D 0x8E 0x8F 0x90 0x91
4.41379976 1 0000418Bx Rx d 8 0x8B 0x8C 0x8D 0x8E 0x8F 0x90 0x91 0x92
4.41440010 1 0000418Cx Rx d 8 0x8C 0x8D 0x8E 0x8F 0x90 0x91 0x92 0x93
4.41489983 1 0000418Dx Rx d 8 0x8D 0x8E 0x8F 0x90 0x91 0x92 0x93 0x94
4.41540003 1 0000418Ex Rx d 8 0x8E 0x8F 0x90 0x91 0x92 0x93 0x94 0x95
4.41599989 1 0000418Fx Rx d 8 0x8A 0x8B 0x8C 0x8D 0x8E 0x8F 0x90 0x91
4.41650009 1 00004190x Rx d 8 0x90 0x91 0x92 0x93 0x94 0x95 0x96 0x97
4.44080019 1 00004185x Rx d 8 0x85 0x86 0x87 0x88 0x89 0x8A 0x8B 0x8C
4.44140005 1 00004189x Rx d 8 0x89 0x8A 0x8B 0x8C 0x8D 0x8E 0x8F 0x90
4.44189978 1 0000418Ax Rx d 8 0x8A 0x8B 0x8C 0x8D 0x8E 0x8F 0x90 0x91
4.46859980 1 00004185x Rx d 8 0x85 0x86 0x87 0x88 0x89 0x8A 0x8B 0x8C
4.46910000 1 00004186x Rx d 8 0x86 0x87 0x88 0x89 0x8A 0x8B 0x8C 0x8D
4.46960020 1 00004187x Rx d 8 0x87 0x88 0x89 0x8A 0x78 0x1A 0x18 0x27
4.47020006 1 00004188x Rx d 8 0x88 0x89 0x8A 0x8B 0x8C 0x8D 0x8E 0x8F
4.47069979 1 00004189x Rx d 8 0x89 0x8A 0x8B 0x8C 0x8D 0x8E 0x8F 0x90
4.47130013 1 0000418Ax Rx d 8 0x8A 0x8B 0x8C 0x8D 0x8E 0x8F 0x90 0x91
4.47179985 1 0000418Bx Rx d 8 0x8B 0x8C 0x8D 0x8E 0x8F 0x90 0x91 0x92
4.47240019 1 0000418Cx Rx d 8 0x8C 0x8D 0x8E 0x8F 0x90 0x91 0x92 0x93
4.47289991 1 0000418Dx Rx d 8 0x8D 0x8E 0x8F 0x90 0x91 0x92 0x93 0x94
4.47340012 1 0000418Ex Rx d 8 0x8E 0x8F 0x90 0x91 0x92 0x93 0x94 0x95
4.47399998 1 0000418Fx Rx d 8 0x8A 0x8B 0x8C 0x8D 0x8E 0x8F 0x90 0x91
4.47450018 1 00004190x Rx d 8 0x90 0x91 0x92 0x93 0x94 0x95 0x96 0x97
4.49879980 1 00004185x Rx d 8 0x85 0x86 0x87 0x88 0x89 0x8A 0x8B 0x8C
4.49940014 1 00004189x Rx d 8 0x89 0x8A 0x8B 0x8C 0x8D 0x8E 0x8F 0x90
4.49989986 1 0000418Ax Rx d 8 0x8A 0x8B 0x8C 0x8D 0x8E 0x8F 0x90 0x91
4.52400017 1 00004185x Rx d 8 0x85 0x86 0x87 0x88 0x89 0x8A 0x8B 0x8C
4.52460003 1 00004186x Rx d 8 0x86 0x87 0x88 0x89 0x8A 0x8B 0x8C 0x8D
4.52510023 1 00004187x Rx d 8 0x87 0x88 0x89 0x8A 0x64 0x1A 0x2C 0x27
4.52570009 1 00004188x Rx d 8 0x88 0x89 0x8A 0x8B 0x8C 0x8D 0x8E 0x8F
4.52619982 1 00004189x Rx d 8 0x89 0x8A 0x8B 0x8C 0x8D 0x8E 0x8F 0x90
4.52670002 1 0000418Ax Rx d 8 0x8A 0x8B 0x8C 0x8D 0x8E 0x8F 0x90 0x91
4.52729988 1 0000418Bx Rx d 8 0x8B 0x8C 0x8D 0x8E 0x8F 0x90 0x91 0x92
4.52780008 1 0000418Cx Rx d 8 0x8C 0x8D 0x8E 0x8F 0x90 0x91 0x92 0x93
4.52839994 1 0000418Dx Rx d 8 0x8D 0x8E 0x8F 0x90 0x91 0x92 0x93 0x94
4.52890015 1 0000418Ex Rx d 8 0x8E 0x8F 0x90 0x91 0x92 0x93 0x94 0x95
4.52950001 1 0000418Fx Rx d 8 0x8A 0x8B 0x8C 0x8D 0x8E 0x8F 0x90 0x91
4.53000021 1 00004190x Rx d 8 0x90 0x91 0x92 0x93 0x94 0x95 0x96 0x97
4.55679989 1 00004185x Rx d 8 0x85 0x86 0x87 0x88 0x89 0x8A 0x8B 0x8C
4.55740023 1 00004189x Rx d 8 0x89 0x8A 0x8B 0x8C 0x8D 0x8E 0x8F 0x90
4.55789995 1 0000418Ax Rx d 8 0x8A 0x8B 0x8C 0x8D 0x8E 0x8F 0x90 0x91
4.58199978 1 00004185x Rx d 8 0x85 0x86 0x87 0x88 0x89 0x8A 0x8B 0x8C
4.58260012 1 00004186x Rx d 8 0x86 0x87 0x88 0x89 0x8A 0x8B 0x8C 0x8D
4.58309984 1 00004187x Rx d 8 0x87 0x88 0x89 0x8A 0x50 0x1A 0x40 0x27
4.58370018 1 00004188x Rx d 8 0x88 0x89 0x8A 0x8B 0x8C 0x8D 0x8E 0x8F
4.58419991 1 00004189x Rx d 8 0x89 0x8A 0x8B 0x8C 0x8D 0x8E 0x8F 0x90
4.58470011 1 0000418Ax Rx d 8 0x8A 0x8B 0x8C 0x8D 0x8E 0x8F 0x90 0x91
4.58529997 1 0000418Bx Rx d 8 0x8B 0x8C 0x8D 0x8E 0x8F 0x90 0x91 0x92
4.58580017 1 0000418Cx Rx d 8 0x8C 0x8D 0x8E 0x8F 0x90 0x91 0x92 0x93
4.58640003 1 0000418Dx Rx d 8 0x8D 0x8E 0x8F 0x90 0x91 0x92 0x93 0x94
4.58690023 1 0000418Ex Rx d 8 0x8E 0x8F 0x90 0x91 0x92 0x93 0x94 0x95
4.58750010 1 0000418Fx Rx d 8 0x8A 0x8B 0x8C 0x8D 0x8E 0x8F 0x90 0x91
4.58799982 1 00004190x Rx d 8 0x90 0x91 0x92 0x93 0x94 0x95 0x96 0x97
4.62249994 1 00004185x Rx d 8 0x85 0x86 0x87 0x88 0x89 0x8A 0x8B 0x8C
4.62300014 1 00004189x Rx d 8 0x89 0x8A 0x8B 0x8C 0x8D 0x8E 0x8F 0x90
4.62360001 1 0000418Ax Rx d 8 0x8A 0x8B 0x8C 0x8D 0x8E 0x8F 0x90 0x91
4.65019989 1 00004185x Rx d 8 0x85 0x86 0x87 0x88 0x89 0x8A 0x8B 0x8C
4.65080023 1 00004186x Rx d 8 0x86 0x87 0x88 0x89 0x8A 0x8B 0x8C 0x8D
4.65129995 1 00004187x Rx d 8 0x87 0x88 0x89 0x8A 0x3C 0x1A 0x54 0x27
4.65180016 1 00004188x Rx d 8 0x88 0x89 0x8A 0x8B 0x8C 0x8D 0x8E 0x8F
4.65240002 1 00004189x Rx d 8 0x89 0x8A 0x8B 0x8C 0x8D 0x8E 0x8F 0x90
4.65290022 1 0000418Ax Rx d 8 0x8A 0x8B 0x8C 0x8D 0x8E 0x8F 0x90 0x91
4.65350008 1 0000418Bx Rx d 8 0x8B 0x8C 0x8D 0x8E 0x8F 0x90 0x91 0x92
4.65399981 1 0000418Cx Rx d 8 0x8C 0x8D 0x8E 0x8F 0x90 0x91 0x92 0x93
4.65460014 1 0000418Dx Rx d 8 0x8D 0x8E 0x8F 0x90 0x91 0x92 0x93 0x94
4.65509987 1 0000418Ex Rx d 8 0x8E 0x8F 0x90 0x91 0x92 0x93 0x94 0x95
4.65560007 1 0000418Fx Rx d 8 0x8A 0x8B 0x8C 0x8D 0x8E 0x8F 0x90 0x91
4.65619993 1 00004190x Rx d 8 0x90 0x91 0x92 0x93 0x94 0x95 0x96 0x97
4.68550014 1 00004185x Rx d 8 0x85 0x86 0x87 0x88 0x89 0x8A 0x8B 0x8C
4.68610001 1 00004189x Rx d 8 0x89 0x8A 0x8B 0x8C 0x8D 0x8E 0x8F 0x90
4.68660021 1 0000418Ax Rx d 8 0x8A 0x8B 0x8C 0x8D 0x8E 0x8F 0x90 0x91
4.71070004 1 00004185x Rx d 8 0x85 0x86 0x87 0x88 0x89 0x8A 0x8B 0x8C
4.71129990 1 00004186x Rx d 8 0x86 0x87 0x88 0x89 0x8A 0x8B 0x8C 0x8D
4.71180010 1 00004187x Rx d 8 0x87 0x88 0x89 0x8A 0x28 0x1A 0x68 0x27
4.71239996 1 00004188x Rx d 8 0x88 0x89 0x8A 0x8B 0x8C 0x8D 0x8E 0x8F
4.71290016 1 00004189x Rx d 8 0x89 0x8A 0x8B 0x8C 0x8D 0x8E 0x8F 0x90
4.71350002 1 0000418Ax Rx d 8 0x8A 0x8B 0x8C 0x8D 0x8E 0x8F 0x90 0x91
4.71400023 1 0000418Bx Rx d 8 0x8B 0x8C 0x8D 0x8E 0x8F 0x90 0x91 0x92
4.71449995 1 0000418Cx Rx d 8 0x8C 0x8D 0x8E 0x8F 0x90 0x91 0x92 0x93
4.71509981 1 0000418Dx Rx d 8 0x8D 0x8E 0x8F 0x90 0x91 0x92 0x93 0x94
4.71560001 1 0000418Ex Rx d 8 0x8E 0x8F 0x90 0x91 0x92 0x93 0x94 0x95
4.71619987 1 0000418Fx Rx d 8 0x8A 0x8B 0x8C 0x8D 0x8E 0x8F 0x90 0x91
4.71670008 1 00004190x Rx d 8 0x90 0x91 0x92 0x93 0x94 0x95 0x96 0x97
4.74100018 1 00004185x Rx d 8 0x85 0x86 0x87 0x88 0x89 0x8A 0x8B 0x8C
4.74149990 1 00004189x Rx d 8 0x89 0x8A 0x8B 0x8C 0x8D 0x8E 0x8F 0x90
4.74209976 1 0000418Ax Rx d 8 0x8A 0x8B 0x8C 0x8D 0x8E 0x8F 0x90 0x91
4.76870012 1 00004185x Rx d 8 0x85 0x86 0x87 0x88 0x89 0x8A 0x8B 0x8C
4.76929998 1 00004186x Rx d 8 0x86 0x87 0x88 0x89 0x8A 0x8B 0x8C 0x8D
4.76980019 1 00004187x Rx d 8 0x87 0x88 0x89 0x8A 0x14 0x1A 0x7C 0x27
4.77040005 1 00004188x Rx d 8 0x88 0x89 0x8A 0x8B 0x8C 0x8D 0x8E 0x8F
4.77089977 1 00004189x Rx d 8 0x89 0x8A 0x8B 0x8C 0x8D 0x8E 0x8F 0x90
4.77150011 1 0000418Ax Rx d 8 0x8A 0x8B 0x8C 0x8D 0x8E 0x8F 0x90 0x91
4.77199984 1 0000418Bx Rx d 8 0x8B 0x8C 0x8D 0x8E 0x8F 0x90 0x91 0x92
4.77250004 1 0000418Cx Rx d 8 0x8C 0x8D 0x8E 0x8F 0x90 0x91 0x92 0x93
4.77309990 1 0000418Dx Rx d 8 0x8D 0x8E 0x8F 0x90 0x91 0x92 0x93 0x94
4.77360010 1 0000418Ex Rx d 8 0x8E 0x8F 0x90 0x91 0x92 0x93 0x94 0x95
4.77419996 1 0000418Fx Rx d 8 0x8A 0x8B 0x8C 0x8D 0x8E 0x8F 0x90 0x91
4.77470016 1 00004190x Rx d 8 0x90 0x91 0x92 0x93 0x94 0x95 0x96 0x97
4.79899979 1 00004185x Rx d 8 0x85 0x86 0x87 0x88 0x89 0x8A 0x8B 0x8C
4.79949999 1 00004189x Rx d 8 0x89 0x8A 0x8B 0x8C 0x8D 0x8E 0x8F 0x90
4.80009985 1 0000418Ax Rx d 8 0x8A 0x8B 0x8C 0x8D 0x8E 0x8F 0x90 0x91
4.82670021 1 00004185x Rx d 8 0x85 0x86 0x87 0x88 0x89 0x8A 0x8B 0x8C
4.82730007 1 00004186x Rx d 8 0x86 0x87 0x88 0x89 0x8A 0x8B 0x8C 0x8D
4.82779980 1 00004187x Rx d 8 0x87 0x88 0x89 0x8A 0x00 0x1A 0x90 0x27
4.82840014 1 00004188x Rx d 8 0x88 0x89 0x8A 0x8B 0x8C 0x8D 0x8E 0x8F
4.82889986 1 00004189x Rx d 8 0x89 0x8A 0x8B 0x8C 0x8D 0x8E 0x8F 0x90
4.82950020 1 0000418Ax Rx d 8 0x8A 0x8B 0x8C 0x8D 0x8E 0x8F 0x90 0x91
4.82999992 1 0000418Bx Rx d 8 0x8B 0x8C 0x8D 0x8E 0x8F 0x90 0x91 0x92
4.83050013 1 0000418Cx Rx d 8 0x8C 0x8D 0x8E 0x8F 0x90 0x91 0x92 0x93
4.83109999 1 0000418Dx Rx d 8 0x8D 0x8E 0x8F 0x90 0x91 0x92 0x93 0x94
4.83160019 1 0000418Ex Rx d 8 0x8E 0x8F 0x90 0x91 0x92 0x93 0x94 0x95
4.83220005 1 0000418Fx Rx d 8 0x8A 0x8B 0x8C 0x8D 0x8E 0x8F 0x90 0x91
4.83269978 1 00004190x Rx d 8 0x90 0x91 0x92 0x93 0x94 0x95 0x96 0x97
4.85699987 1 00004185x Rx d 8 0x85 0x86 0x87 0x88 0x89 0x8A 0x8B 0x8C
4.85750008 1 00004189x Rx d 8 0x89 0x8A 0x8B 0x8C 0x8D 0x8E 0x8F 0x90
4.85809994 1 0000418Ax Rx d 8 0x8A 0x8B 0x8C 0x8D 0x8E 0x8F 0x90 0x91
4.88469982 1 00004185x Rx d 8 0x85 0x86 0x87 0x88 0x89 0x8A 0x8B 0x8C
4.88530016 1 00004186x Rx d 8 0x86 0x87 0x88 0x89 0x8A 0x8B 0x8C 0x8D
4.88579988 1 00004187x Rx d 8 0x87 0x88 0x89 0x8A 0xEC 0x19 0xA4 0x27
4.88640022 1 00004188x Rx d 8 0x88 0x89 0x8A 0x8B 0x8C 0x8D 0x8E 0x8F
4.88689995 1 00004189x Rx d 8 0x89 0x8A 0x8B 0x8C 0x8D 0x8E 0x8F 0x90
4.88740015 1 0000418Ax Rx d 8 0x8A 0x8B 0x8C 0x8D 0x8E 0x8F 0x90 0x91
4.88800001 1 0000418Bx Rx d 8 0x8B 0x8C 0x8D 0x8E 0x8F 0x90 0x91 0x92
4.88850021 1 0000418Cx Rx d 8 0x8C 0x8D 0x8E 0x8F 0x90 0x91 0x92 0x93
4.88910007 1 0000418Dx Rx d 8 0x8D 0x8E 0x8F 0x90 0x91 0x92 0x93 0x94
4.88959980 1 0000418Ex Rx d 8 0x8E 0x8F 0x90 0x91 0x92 0x93 0x94 0x95
4.89020014 1 0000418Fx Rx d 8 0x8A 0x8B 0x8C 0x8D 0x8E 0x8F 0x90 0x91
4.89069986 1 00004190x Rx d 8 0x90 0x91 0x92 0x93 0x94 0x95 0x96 0x97
4.91499996 1 00004185x Rx d 8 0x85 0x86 0x87 0x88 0x89 0x8A 0x8B 0x8C
4.91550016 1 00004189x Rx d 8 0x89 0x8A 0x8B 0x8C 0x8D 0x8E 0x8F 0x90
4.91610003 1 0000418Ax Rx d 8 0x8A 0x8B 0x8C 0x8D 0x8E 0x8F 0x90 0x91
4.94269991 1 00004185x Rx d 8 0x85 0x86 0x87 0x88 0x89 0x8A 0x8B 0x8C
4.94329977 1 00004186x Rx d 8 0x86 0x87 0x88 0x89 0x8A 0x8B 0x8C 0x8D
4.94379997 1 00004187x Rx d 8 0x87 0x88 0x89 0x8A 0xD8 0x19 0xB8 0x27
4.94430017 1 00004188x Rx d 8 0x88 0x89 0x8A 0x8B 0x8C 0x8D 0x8E 0x8F
4.94490004 1 00004189x Rx d 8 0x89 0x8A 0x8B 0x8C 0x8D 0x8E 0x8F 0x90
4.94540024 1 0000418Ax Rx d 8 0x8A 0x8B 0x8C 0x8D 0x8E 0x8F 0x90 0x91
4.94600010 1 0000418Bx Rx d 8 0x8B 0x8C 0x8D 0x8E 0x8F 0x90 0x91 0x92
4.94649982 1 0000418Cx Rx d 8 0x8C 0x8D 0x8E 0x8F 0x90 0x91 0x92 0x93
4.94710016 1 0000418Dx Rx d 8 0x8D 0x8E 0x8F 0x90 0x91 0x92 0x93 0x94
4.94759989 1 0000418Ex Rx d 8 0x8E 0x8F 0x90 0x91 0x92 0x93 0x94 0x95
4.94810009 1 0000418Fx Rx d 8 0x8A 0x8B 0x8C 0x8D 0x8E 0x8F 0x90 0x91
4.94869995 1 00004190x Rx d 8 0x90 0x91 0x92 0x93 0x94 0x95 0x96 0x97
4.97300005 1 00004185x Rx d 8 0x85 0x86 0x87 0x88 0x89 0x8A 0x8B 0x8C
4.97349977 1 00004189x Rx d 8 0x89 0x8A 0x8B 0x8C 0x8D 0x8E 0x8F 0x90
4.97410011 1 0000418Ax Rx d 8 0x8A 0x8B 0x8C 0x8D 0x8E 0x8F 0x90 0x91
5.00070000 1 00004185x Rx d 8 0x85 0x86 0x87 0x88 0x89 0x8A 0x8B 0x8C
5.00129986 1 00004186x Rx d 8 0x86 0x87 0x88 0x89 0x8A 0x8B 0x8C 0x8D
5.00180006 1 00004187x Rx d 8 0x87 0x88 0x89 0x8A 0xC4 0x19 0xCC 0x27
5.00229979 1 00004188x Rx d 8 0x88 0x89 0x8A 0x8B 0x8C 0x8D 0x8E 0x8F
5.00290012 1 00004189x Rx d 8 0x89 0x8A 0x8B 0x8C 0x8D 0x8E 0x8F 0x90
5.00339985 1 0000418Ax Rx d 8 0x8A 0x8B 0x8C 0x8D 0x8E 0x8F 0x90 0x91
5.00400019 1 0000418Bx Rx d 8 0x8B 0x8C 0x8D 0x8E 0x8F 0x90 0x91 0x92
5.00449991 1 0000418Cx Rx d 8 0x8C 0x8D 0x8E 0x8F 0x90 0x91 0x92 0x93
5.00509977 1 0000418Dx Rx d 8 0x8D 0x8E 0x8F 0x90 0x91 0x92 0x93 0x94
5.00559998 1 0000418Ex Rx d 8 0x8E 0x8F 0x90 0x91 0x92 0x93 0x94 0x95
5.00610018 1 0000418Fx Rx d 8 0x8A 0x8B 0x8C 0x8D 0x8E 0x8F 0x90 0x91
5.00670004 1 00004190x Rx d 8 0x90 0x91 0x92 0x93 0x94 0x95 0x96 0x97
5.03100014 1 00004185x Rx d 8 0x85 0x86 0x87 0x88 0x89 0x8A 0x8B 0x8C
5.03149986 1 00004189x Rx d 8 0x89 0x8A 0x8B 0x8C 0x8D 0x8E 0x8F 0x90
5.03210020 1 0000418Ax Rx d 8 0x8A 0x8B 0x8C 0x8D 0x8E 0x8F 0x90 0x91
5.05620003 1 00004185x Rx d 8 0x85 0x86 0x87 0x88 0x89 0x8A 0x8B 0x8C
5.05670023 1 00004186x Rx d 8 0x86 0x87 0x88 0x89 0x8A 0x8B 0x8C 0x8D
5.05730009 1 00004187x Rx d 8 0x87 0x88 0x89 0x8A 0xB0 0x19 0xE0 0x27
5.05779982 1 00004188x Rx d 8 0x88 0x89 0x8A 0x8B 0x8C 0x8D 0x8E 0x8F
5.05840015 1 00004189x Rx d 8 0x89 0x8A 0x8B 0x8C 0x8D 0x8E 0x8F 0x90
5.05889988 1 0000418Ax Rx d 8 0x8A 0x8B 0x8C 0x8D 0x8E 0x8F 0x90 0x91
5.05940008 1 0000418Bx Rx d 8 0x8B 0x8C 0x8D 0x8E 0x8F 0x90 0x91 0x92
5.05999994 1 0000418Cx Rx d 8 0x8C 0x8D 0x8E 0x8F 0x90 0x91 0x92 0x93
5.06050014 1 0000418Dx Rx d 8 0x8D 0x8E 0x8F 0x90 0x91 0x92 0x93 0x94
5.06110001 1 0000418Ex Rx d 8 0x8E 0x8F 0x90 0x91 0x92 0x93 0x94 0x95
5.06160021 1 0000418Fx Rx d 8 0x8A 0x8B 0x8C 0x8D 0x8E 0x8F 0x90 0x91
5.06220007 1 00004190x Rx d 8 0x90 0x91 0x92 0x93 0x94 0x95 0x96 0x97
5.08699989 1 00004189x Rx d 8 0x89 0x8A 0x8B 0x8C 0x8D 0x8E 0x8F 0x90
5.08760023 1 0000418Ax Rx d 8 0x8A 0x8B 0x8C 0x8D 0x8E 0x8F 0x90 0x91
5.12190008 1 00004185x Rx d 8 0x85 0x86 0x87 0x88 0x89 0x8A 0x8B 0x8C
5.12239981 1 00004186x Rx d 8 0x86 0x87 0x88 0x89 0x8A 0x8B 0x8C 0x8D
5.12290001 1 00004187x Rx d 8 0x87 0x88 0x89 0x8A 0x9C 0x19 0xF4 0x27
5.12349987 1 00004188x Rx d 8 0x88 0x89 0x8A 0x8B 0x8C 0x8D 0x8E 0x8F
5.12400007 1 00004189x Rx d 8 0x89 0x8A 0x8B 0x8C 0x8D 0x8E 0x8F 0x90
5.12459993 1 0000418Ax Rx d 8 0x8A 0x8B 0x8C 0x8D 0x8E 0x8F 0x90 0x91
5.12510014 1 0000418Bx Rx d 8 0x8B 0x8C 0x8D 0x8E 0x8F 0x90 0x91 0x92
5.12570000 1 0000418Cx Rx d 8 0x8C 0x8D 0x8E 0x8F 0x90 0x91 0x92 0x93
5.12620020 1 0000418Dx Rx d 8 0x8D 0x8E 0x8F 0x90 0x91 0x92 0x93 0x94
5.12669992 1 0000418Ex Rx d 8 0x8E 0x8F 0x90 0x91 0x92 0x93 0x94 0x95
5.12729979 1 0000418Fx Rx d 8 0x8A 0x8B 0x8C 0x8D 0x8E 0x8F 0x90 0x91
5.12779999 1 00004190x Rx d 8 0x90 0x91 0x92 0x93 0x94 0x95 0x96 0x97
5.15210009 1 00004185x Rx d 8 0x85 0x86 0x87 0x88 0x89 0x8A 0x8B 0x8C
5.15269995 1 00004189x Rx d 8 0x89 0x8A 0x8B 0x8C 0x8D 0x8E 0x8F 0x90
5.15320015 1 0000418Ax Rx d 8 0x8A 0x8B 0x8C 0x8D 0x8E 0x8F 0x90 0x91
5.18240023 1 00004185x Rx d 8 0x85 0x86 0x87 0x88 0x89 0x8A 0x8B 0x8C
5.18289995 1 00004186x Rx d 8 0x86 0x87 0x88 0x89 0x8A 0x8B 0x8C 0x8D
5.18349981 1 00004187x Rx d 8 0x87 0x88 0x89 0x8A 0x88 0x19 0x08 0x28
5.18400002 1 00004188x Rx d 8 0x88 0x89 0x8A 0x8B 0x8C 0x8D 0x8E 0x8F
5.18450022 1 00004189x Rx d 8 0x89 0x8A 0x8B 0x8C 0x8D 0x8E 0x8F 0x90
5.18510008 1 0000418Ax Rx d 8 0x8A 0x8B 0x8C 0x8D 0x8E 0x8F 0x90 0x91
5.18559980 1 0000418Bx Rx d 8 0x8B 0x8C 0x8D 0x8E 0x8F 0x90 0x91 0x92
5.18620014 1 0000418Cx Rx d 8 0x8C 0x8D 0x8E 0x8F 0x90 0x91 0x92 0x93
5.18669987 1 0000418Dx Rx d 8 0x8D 0x8E 0x8F 0x90 0x91 0x92 0x93 0x94
5.18730021 1 0000418Ex Rx d 8 0x8E 0x8F 0x90 0x91 0x92 0x93 0x94 0x95
5.18779993 1 0000418Fx Rx d 8 0x8A 0x8B 0x8C 0x8D 0x8E 0x8F 0x90 0x91
5.18830013 1 00004190x Rx d 8 0x90 0x91 0x92 0x93 0x94 0x95 0x96 0x97
5.21260023 1 00004185x Rx d 8 0x85 0x86 0x87 0x88 0x89 0x8A 0x8B 0x8C
5.21320009 1 00004189x Rx d 8 0x89 0x8A 0x8B 0x8C 0x8D 0x8E 0x8F 0x90
5.21369982 1 0000418Ax Rx d 8 0x8A 0x8B 0x8C 0x8D 0x8E 0x8F 0x90 0x91
5.24289989 1 00004185x Rx d 8 0x85 0x86 0x87 0x88 0x89 0x8A 0x8B 0x8C
5.24340010 1 00004186x Rx d 8 0x86 0x87 0x88 0x89 0x8A 0x8B 0x8C 0x8D
5.24399996 1 00004187x Rx d 8 0x87 0x88 0x89 0x8A 0x74 0x19 0x1C 0x28
5.24450016 1 00004188x Rx d 8 0x88 0x89 0x8A 0x8B 0x8C 0x8D 0x8E 0x8F
5.24510002 1 00004189x Rx d 8 0x89 0x8A 0x8B 0x8C 0x8D 0x8E 0x8F 0x90
5.24560022 1 0000418Ax Rx d 8 0x8A 0x8B 0x8C 0x8D 0x8E 0x8F 0x90 0x91
5.24620008 1 0000418Bx Rx d 8 0x8B 0x8C 0x8D 0x8E 0x8F 0x90 0x91 0x92
5.24669981 1 0000418Cx Rx d 8 0x8C 0x8D 0x8E 0x8F 0x90 0x91 0x92 0x93
5.24720001 1 0000418Dx Rx d 8 0x8D 0x8E 0x8F 0x90 0x91 0x92 0x93 0x94
5.24779987 1 0000418Ex Rx d 8 0x8E 0x8F 0x90 0x91 0x92 0x93 0x94 0x95
5.24830008 1 0000418Fx Rx d 8 0x8A 0x8B 0x8C 0x8D 0x8E 0x8F 0x90 0x91
5.24889994 1 00004190x Rx d 8 0x90 0x91 0x92 0x93 0x94 0x95 0x96 0x97
5.27570009 1 00004185x Rx d 8 0x85 0x86 0x87 0x88 0x89 0x8A 0x8B 0x8C
5.27619982 1 00004189x Rx d 8 0x89 0x8A 0x8B 0x8C 0x8D 0x8E 0x8F 0x90
5.27680016 1 0000418Ax Rx d 8 0x8A 0x8B 0x8C 0x8D 0x8E 0x8F 0x90 0x91
5.30089998 1 00004185x Rx d 8 0x85 0x86 0x87 0x88 0x89 0x8A 0x8B 0x8C
5.30140018 1 00004186x Rx d 8 0x86 0x87 0x88 0x89 0x8A 0x8B 0x8C 0x8D
5.30200005 1 00004187x Rx d 8 0x87 0x88 0x89 0x8A 0x60 0x19 0x30 0x28
5.30249977 1 00004188x Rx d 8 0x88 0x89 0x8A 0x8B 0x8C 0x8D 0x8E 0x8F
5.30310011 1 00004189x Rx d 8 0x89 0x8A 0x8B 0x8C 0x8D 0x8E 0x8F 0x90
5.30359983 1 0000418Ax Rx d 8 0x8A 0x8B 0x8C 0x8D 0x8E 0x8F 0x90 0x91
5.30420017 1 0000418Bx Rx d 8 0x8B 0x8C 0x8D 0x8E 0x8F 0x90 0x91 0x92
5.30469990 1 0000418Cx Rx d 8 0x8C 0x8D 0x8E 0x8F 0x90 0x91 0x92 0x93
5.30520010 1 0000418Dx Rx d 8 0x8D 0x8E 0x8F 0x90 0x91 0x92 0x93 0x94
5.30579996 1 0000418Ex Rx d 8 0x8E 0x8F 0x90 0x91 0x92 0x93 0x94 0x95
5.30630016 1 0000418Fx Rx d 8 0x8A 0x8B 0x8C 0x8D 0x8E 0x8F 0x90 0x91
5.30690002 1 00004190x Rx d 8 0x90 0x91 0x92 0x93 0x94 0x95 0x96 0x97
5.33120012 1 00004185x Rx d 8 0x85 0x86 0x87 0x88 0x89 0x8A 0x8B 0x8C
5.33169985 1 00004189x Rx d 8 0x89 0x8A 0x8B 0x8C 0x8D 0x8E 0x8F 0x90
5.33220005 1 0000418Ax Rx d 8 0x8A 0x8B 0x8C 0x8D 0x8E 0x8F 0x90 0x91
5.36140013 1 00004185x Rx d 8 0x85 0x86 0x87 0x88 0x89 0x8A 0x8B 0x8C
5.36189985 1 00004186x Rx d 8 0x86 0x87 0x88 0x89 0x8A 0x8B 0x8C 0x8D
5.36250019 1 00004187x Rx d 8 0x87 0x88 0x89 0x8A 0x4C 0x19 0x44 0x28
5.36299992 1 00004188x Rx d 8 0x88 0x89 0x8A 0x8B 0x8C 0x8D 0x8E 0x8F
5.36359978 1 00004189x Rx d 8 0x89 0x8A 0x8B 0x8C 0x8D 0x8E 0x8F 0x90
5.36409998 1 0000418Ax Rx d 8 0x8A 0x8B 0x8C 0x8D 0x8E 0x8F 0x90 0x91
5.36469984 1 0000418Bx Rx d 8 0x8B 0x8C 0x8D 0x8E 0x8F 0x90 0x91 0x92
5.36520004 1 0000418Cx Rx d 8 0x8C 0x8D 0x8E 0x8F 0x90 0x91 0x92 0x93
5.36579990 1 0000418Dx Rx d 8 0x8D 0x8E 0x8F 0x90 0x91 0x92 0x93 0x94
5.36630011 1 0000418Ex Rx d 8 0x8E 0x8F 0x90 0x91 0x92 0x93 0x94 0x95
5.36679983 1 0000418Fx Rx d 8 0x8A 0x8B 0x8C 0x8D 0x8E 0x8F 0x90 0x91
5.36740017 1 00004190x Rx d 8 0x90 0x91 0x92 0x93 0x94 0x95 0x96 0x97
5.39419985 1 00004185x Rx d 8 0x85 0x86 0x87 0x88 0x89 0x8A 0x8B 0x8C
5.39470005 1 00004189x Rx d 8 0x89 0x8A 0x8B 0x8C 0x8D 0x8E 0x8F 0x90
5.39529991 1 0000418Ax Rx d 8 0x8A 0x8B 0x8C 0x8D 0x8E 0x8F 0x90 0x91
5.42189980 1 00004185x Rx d 8 0x85 0x86 0x87 0x88 0x89 0x8A 0x8B 0x8C
5.42250013 1 00004186x Rx d 8 0x86 0x87 0x88 0x89 0x8A 0x8B 0x8C 0x8D
5.42299986 1 00004187x Rx d 8 0x87 0x88 0x89 0x8A 0x38 0x19 0x58 0x28
5.42360020 1 00004188x Rx d 8 0x88 0x89 0x8A 0x8B 0x8C 0x8D 0x8E 0x8F
5.42409992 1 00004189x Rx d 8 0x89 0x8A 0x8B 0x8C 0x8D 0x8E 0x8F 0x90
5.42469978 1 0000418Ax Rx d 8 0x8A 0x8B 0x8C 0x8D 0x8E 0x8F 0x90 0x91
5.42519999 1 0000418Bx Rx d 8 0x8B 0x8C 0x8D 0x8E 0x8F 0x90 0x91 0x92
5.42570019 1 0000418Cx Rx d 8 0x8C 0x8D 0x8E 0x8F 0x90 0x91 0x92 0x93
5.42630005 1 0000418Dx Rx d 8 0x8D 0x8E 0x8F 0x90 0x91 0x92 0x93 0x94
5.42679977 1 0000418Ex Rx d 8 0x8E 0x8F 0x90 0x91 0x92 0x93 0x94 0x95
5.42740011 1 0000418Fx Rx d 8 0x8A 0x8B 0x8C 0x8D 0x8E 0x8F 0x90 0x91
5.42789984 1 00004190x Rx d 8 0x90 0x91 0x92 0x93 0x94 0x95 0x96 0x97
5.45219994 1 00004185x Rx d 8 0x85 0x86 0x87 0x88 0x89 0x8A 0x8B 0x8C
5.45270014 1 00004189x Rx d 8 0x89 0x8A 0x8B 0x8C 0x8D 0x8E 0x8F 0x90
5.45330000 1 0000418Ax Rx d 8 0x8A 0x8B 0x8C 0x8D 0x8E 0x8F 0x90 0x91
5.47989988 1 00004185x Rx d 8 0x85 0x86 0x87 0x88 0x89 0x8A 0x8B 0x8C
5.48050022 1 00004186x Rx d 8 0x86 0x87 0x88 0x89 0x8A 0x8B 0x8C 0x8D
5.48099995 1 00004187x Rx d 8 0x87 0x88 0x89 0x8A 0x24 0x19 0x6C 0x28
5.48159981 1 00004188x Rx d 8 0x88 0x89 0x8A 0x8B 0x8C 0x8D 0x8E 0x8F
5.48210001 1 00004189x Rx d 8 0x89 0x8A 0x8B 0x8C 0x8D 0x8E 0x8F 0x90
5.48260021 1 0000418Ax Rx d 8 0x8A 0x8B 0x8C 0x8D 0x8E 0x8F 0x90 0x91
5.48320007 1 0000418Bx Rx d 8 0x8B 0x8C 0x8D 0x8E 0x8F 0x90 0x91 0x92
5.48369980 1 0000418Cx Rx d 8 0x8C 0x8D 0x8E 0x8F 0x90 0x91 0x92 0x93
5.48430014 1 0000418Dx Rx d 8 0x8D 0x8E 0x8F 0x90 0x91 0x92 0x93 0x94
5.48479986 1 0000418Ex Rx d 8 0x8E 0x8F 0x90 0x91 0x92 0x93 0x94 0x95
5.48530006 1 0000418Fx Rx d 8 0x8A 0x8B 0x8C 0x8D 0x8E 0x8F 0x90 0x91
5.48589993 1 00004190x Rx d 8 0x90 0x91 0x92 0x93 0x94 0x95 0x96 0x97
5.51520014 1 00004185x Rx d 8 0x85 0x86 0x87 0x88 0x89 0x8A 0x8B 0x8C
5.51580000 1 00004189x Rx d 8 0x89 0x8A 0x8B 0x8C 0x8D 0x8E 0x8F 0x90
5.51630020 1 0000418Ax Rx d 8 0x8A 0x8B 0x8C 0x8D 0x8E 0x8F 0x90 0x91
5.54300022 1 00004185x Rx d 8 0x85 0x86 0x87 0x88 0x89 0x8A 0x8B 0x8C
5.54349995 1 00004186x Rx d 8 0x86 0x87 0x88 0x89 0x8A 0x8B 0x8C 0x8D
5.54409981 1 00004187x Rx d 8 0x87 0x88 0x89 0x8A 0x10 0x19 0x80 0x28
5.54460001 1 00004188x Rx d 8 0x88 0x89 0x8A 0x8B 0x8C 0x8D 0x8E 0x8F
5.54510021 1 00004189x Rx d 8 0x89 0x8A 0x8B 0x8C 0x8D 0x8E 0x8F 0x90
5.54570007 1 0000418Ax Rx d 8 0x8A 0x8B 0x8C 0x8D 0x8E 0x8F 0x90 0x91
5.54619980 1 0000418Bx Rx d 8 0x8B 0x8C 0x8D 0x8E 0x8F 0x90 0x91 0x92
5.54680014 1 0000418Cx Rx d 8 0x8C 0x8D 0x8E 0x8F 0x90 0x91 0x92 0x93
5.54729986 1 0000418Dx Rx d 8 0x8D 0x8E 0x8F 0x90 0x91 0x92 0x93 0x94
5.54790020 1 0000418Ex Rx d 8 0x8E 0x8F 0x90 0x91 0x92 0x93 0x94 0x95
5.54839993 1 0000418Fx Rx d 8 0x8A 0x8B 0x8C 0x8D 0x8E 0x8F 0x90 0x91
5.54890013 1 00004190x Rx d 8 0x90 0x91 0x92 0x93 0x94 0x95 0x96 0x97
5.57320023 1 00004185x Rx d 8 0x85 0x86 0x87 0x88 0x89 0x8A 0x8B 0x8C
5.57380009 1 00004189x Rx d 8 0x89 0x8A 0x8B 0x8C 0x8D 0x8E 0x8F 0x90
5.57429981 1 0000418Ax Rx d 8 0x8A 0x8B 0x8C 0x8D 0x8E 0x8F 0x90 0x91
5.59840012 1 00004185x Rx d 8 0x85 0x86 0x87 0x88 0x89 0x8A 0x8B 0x8C
5.59899998 1 00004186x Rx d 8 0x86 0x87 0x88 0x89 0x8A 0x8B 0x8C 0x8D
5.59950018 1 00004187x Rx d 8 0x87 0x88 0x89 0x8A 0xFC 0x18 0x94 0x28
5.60010004 1 00004188x Rx d 8 0x88 0x89 0x8A 0x8B 0x8C 0x8D 0x8E 0x8F
5.60059977 1 00004189x Rx d 8 0x89 0x8A 0x8B 0x8C 0x8D 0x8E 0x8F 0x90
5.60120010 1 0000418Ax Rx d 8 0x8A 0x8B 0x8C 0x8D 0x8E 0x8F 0x90 0x91
5.60169983 1 0000418Bx Rx d 8 0x8B 0x8C 0x8D 0x8E 0x8F 0x90 0x91 0x92
5.60230017 1 0000418Cx Rx d 8 0x8C 0x8D 0x8E 0x8F 0x90 0x91 0x92 0x93
5.60279989 1 0000418Dx Rx d 8 0x8D 0x8E 0x8F 0x90 0x91 0x92 0x93 0x94
5.60330009 1 0000418Ex Rx d 8 0x8E 0x8F 0x90 0x91 0x92 0x93 0x94 0x95
5.60389996 1 0000418Fx Rx d 8 0x8A 0x8B 0x8C 0x8D 0x8E 0x8F 0x90 0x91
5.60440016 1 00004190x Rx d 8 0x90 0x91 0x92 0x93 0x94 0x95 0x96 0x97
5.63119984 1 00004185x Rx d 8 0x85 0x86 0x87 0x88 0x89 0x8A 0x8B 0x8C
5.63180017 1 00004189x Rx d 8 0x89 0x8A 0x8B 0x8C 0x8D 0x8E 0x8F 0x90
5.63229990 1 0000418Ax Rx d 8 0x8A 0x8B 0x8C 0x8D 0x8E 0x8F 0x90 0x91
5.65899992 1 00004185x Rx d 8 0x85 0x86 0x87 0x88 0x89 0x8A 0x8B 0x8C
5.65950012 1 00004186x Rx d 8 0x86 0x87 0x88 0x89 0x8A 0x8B 0x8C 0x8D
5.66009998 1 00004187x Rx d 8 0x87 0x88 0x89 0x8A 0xE8 0x18 0xA8 0x28
5.66060019 1 00004188x Rx d 8 0x88 0x89 0x8A 0x8B 0x8C 0x8D 0x8E 0x8F
5.66109991 1 00004189x Rx d 8 0x89 0x8A 0x8B 0x8C 0x8D 0x8E 0x8F 0x90
5.66169977 1 0000418Ax Rx d 8 0x8A 0x8B 0x8C 0x8D 0x8E 0x8F 0x90 0x91
5.66219997 1 0000418Bx Rx d 8 0x8B 0x8C 0x8D 0x8E 0x8F 0x90 0x91 0x92
5.66279984 1 0000418Cx Rx d 8 0x8C 0x8D 0x8E 0x8F 0x90 0x91 0x92 0x93
5.66330004 1 0000418Dx Rx d 8 0x8D 0x8E 0x8F 0x90 0x91 0x92 0x93 0x94
5.66389990 1 0000418Ex Rx d 8 0x8E 0x8F 0x90 0x91 0x92 0x93 0x94 0x95
5.66440010 1 0000418Fx Rx d 8 0x8A 0x8B 0x8C 0x8D 0x8E 0x8F 0x90 0x91
5.66489983 1 00004190x Rx d 8 0x90 0x91 0x92 0x93 0x94 0x95 0x96 0x97
5.68919992 1 00004185x Rx d 8 0x85 0x86 0x87 0x88 0x89 0x8A 0x8B 0x8C
5.68979979 1 00004189x Rx d 8 0x89 0x8A 0x8B 0x8C 0x8D 0x8E 0x8F 0x90
5.69029999 1 0000418Ax Rx d 8 0x8A 0x8B 0x8C 0x8D 0x8E 0x8F 0x90 0x91
5.71439981 1 00004185x Rx d 8 0x85 0x86 0x87 0x88 0x89 0x8A 0x8B 0x8C
5.71500015 1 00004186x Rx d 8 0x86 0x87 0x88 0x89 0x8A 0x8B 0x8C 0x8D
5.71549988 1 00004187x Rx d 8 0x87 0x88 0x89 0x8A 0xD4 0x18 0xBC 0x28
5.71610022 1 00004188x Rx d 8 0x88 0x89 0x8A 0x8B 0x8C 0x8D 0x8E 0x8F
5.71659994 1 00004189x Rx d 8 0x89 0x8A 0x8B 0x8C 0x8D 0x8E 0x8F 0x90
